# vsim -c -do "coverage save -onexit coverage_data/apb_basic_test_quiet.ucdb -testname apb_basic_test_quiet; run -all; quit -f" testbench_opt "+UVM_TESTNAME=apb_basic_test" "+UVM_NO_RELNOTES" "+DISABLE_CLOCK_DEBUG" "+DISABLE_MONITOR" "+DISABLE_WAVES" "+uvm_set_verbosity=_ALL_,_ALL_,UVM_NONE,build" "+uvm_set_verbosity=_ALL_,_ALL_,UVM_NONE,run" -coverage -coveranalysis -voptargs="+cover=bcesft+assert" 
# Start time: 01:00:28 on Mar 27,2026
# //  Questa Sim-64
# //  Version 10.7c win64 Aug 18 2018
# //
# //  Copyright 1991-2018 Mentor Graphics Corporation
# //  All Rights Reserved.
# //
# //  QuestaSim and its associated documentation contain trade
# //  secrets and commercial or financial information that are the property of
# //  Mentor Graphics Corporation and are privileged, confidential,
# //  and exempt from disclosure under the Freedom of Information Act,
# //  5 U.S.C. Section 552. Furthermore, this information
# //  is prohibited from disclosure under the Trade Secrets Act,
# //  18 U.S.C. Section 1905.
# //
# Loading sv_std.std
# Loading work.apb_if(fast)
# Loading mtiUvm.uvm_pkg
# Loading work.apb_common_pkg(fast)
# Loading work.apb_slave_pkg(fast)
# Loading work.apb_master_pkg(fast)
# Loading work.apb_test_pkg(fast)
# Loading work.testbench_sv_unit(fast)
# Loading work.testbench(fast)
# Loading work.apb_if(fast)
# Loading work.APB_master(fast)
# Loading work.APB_slave(fast)
# Loading mtiUvm.questa_uvm_pkg(fast)
# Loading C:/questasim64_10.7c/uvm-1.1d\win64\uvm_dpi.dll
# coverage save -onexit coverage_data/apb_basic_test_quiet.ucdb -testname apb_basic_test_quiet
#  run -all
# ----------------------------------------------------------------
# UVM-1.1d
# (C) 2007-2013 Mentor Graphics Corporation
# (C) 2007-2013 Cadence Design Systems, Inc.
# (C) 2006-2013 Synopsys, Inc.
# (C) 2011-2013 Cypress Semiconductor Corp.
# ----------------------------------------------------------------
# UVM_INFO verilog_src/questa_uvm_pkg-1.2/src/questa_uvm_pkg.sv(215) @ 0: reporter [Questa UVM] QUESTA_UVM-1.2.3
# UVM_INFO verilog_src/questa_uvm_pkg-1.2/src/questa_uvm_pkg.sv(216) @ 0: reporter [Questa UVM]  questa_uvm::init(+struct)
# Time: 0, RESET: Initial presetn=1
# UVM_INFO @ 0: reporter [RNTST] Running test apb_basic_test...
# Virtual interface obtained
# ENV: Virtual interface obtained
# ENV: build_phase complete
# APB Coverage Build Phase Complete
# WARNING: write() called with null transaction
# MASTER_AGENT: ACTIVE - driver + sequencer created
# Master driver: virtual interface obtained
# Master driver: coverage instance created
# APB Coverage Build Phase Complete
# WARNING: write() called with null transaction
# Master monitor: virtual interface obtained
# Master monitor: coverage registered
# APB Coverage Build Phase Complete
# WARNING: write() called with null transaction
# APB Scoreboard Build Phase Complete
# SLAVE_AGENT: ACTIVE - driver + sequencer created
# Slave driver: virtual interface obtained
# Slave monitor: virtual interface obtained
# Slave monitor: coverage registered
# APB Coverage Build Phase Complete
# WARNING: write() called with null transaction
# MASTER_AGENT: driver connected to sequencer
# SLAVE_AGENT: driver connected to sequencer
# ENV: connect_phase complete
# Phase 1: MIN_DELAY (delay=1)
# Slave monitor starting
# Slave monitor: waiting for PSEL
# Master monitor starting
# Master monitor: waiting for PSEL
# Time: 10, Phase: IDLE, paddr: 00000000, psel: 0, penable: 0, pwrite: 0, prdata: 00000000, pwdata: 00000000
# Time: 30, Phase: IDLE, paddr: 00000000, psel: 0, penable: 0, pwrite: 0, prdata: 00000000, pwdata: 00000000
# Time: 50, Phase: IDLE, paddr: 00000000, psel: 0, penable: 0, pwrite: 0, prdata: 00000000, pwdata: 00000000
# Time: 70, Phase: IDLE, paddr: 00000000, psel: 0, penable: 0, pwrite: 0, prdata: 00000000, pwdata: 00000000
# Time: 90, Phase: IDLE, paddr: 00000000, psel: 0, penable: 0, pwrite: 0, prdata: 00000000, pwdata: 00000000
# Time: 110, Phase: IDLE, paddr: 00000000, psel: 0, penable: 0, pwrite: 0, prdata: 00000000, pwdata: 00000000
# Time: 130, Phase: IDLE, paddr: 00000000, psel: 0, penable: 0, pwrite: 0, prdata: 00000000, pwdata: 00000000
# Time: 150, Phase: IDLE, paddr: 00000000, psel: 0, penable: 0, pwrite: 0, prdata: 00000000, pwdata: 00000000
# Time: 170, Phase: IDLE, paddr: 00000000, psel: 0, penable: 0, pwrite: 0, prdata: 00000000, pwdata: 00000000
# Time: 190, Phase: IDLE, paddr: 00000000, psel: 0, penable: 0, pwrite: 0, prdata: 00000000, pwdata: 00000000
# Time: 200, RESET: Applying reset presetn=0
# Reset asserted - holding signals
# Slave driver: reset asserted
# Time: 210, Phase: IDLE, paddr: 00000000, psel: 0, penable: 0, pwrite: 0, prdata: 00000000, pwdata: 00000000
# Time: 230, Phase: IDLE, paddr: 00000000, psel: 0, penable: 0, pwrite: 0, prdata: 00000000, pwdata: 00000000
# Time: 240, RESET: Releasing reset presetn=1
# Slave driver: reset released
# Slave driver starting get_and_drive
# Reset released - ready to drive
# Master driver starting get_and_drive
# Waiting for sequence item
# Got item: 
# -------------------------APB_MASTER_TRANSFER-------------------------
# DIR.=WRITE
# ADDR=6ce2b921
# DATA=e84a3aa1
# --------------------------------------------------------------
# Slave driver: got item 
# -------------------------APB_SLAVE_TRANSFER-------------------------
# DIR.=WRITE
# ADDR=c2931cd3
# DATA=901ba923
# --------------------------------------------------------------
# Time: 250, Phase: IDLE, paddr: 00000000, psel: 0, penable: 0, pwrite: 0, prdata: 00000000, pwdata: 00000000
# Time: 270, Phase: IDLE, paddr: 00000000, psel: 0, penable: 0, pwrite: 0, prdata: 00000000, pwdata: 00000000
# Time: 290, Phase: IDLE, paddr: 00000000, psel: 0, penable: 0, pwrite: 0, prdata: 00000000, pwdata: 00000000
# Time: 310, Phase: IDLE, paddr: 00000000, psel: 0, penable: 0, pwrite: 0, prdata: 00000000, pwdata: 00000000
# Time: 330, Phase: IDLE, paddr: 00000000, psel: 0, penable: 0, pwrite: 0, prdata: 00000000, pwdata: 00000000
# Time: 350, Phase: IDLE, paddr: 00000000, psel: 0, penable: 0, pwrite: 0, prdata: 00000000, pwdata: 00000000
# Driving: addr=6ce2b921 data=e84a3aa1 write=1
# WRITE transaction: PWDATA set
# Time: 370, Phase: IDLE, paddr: 00000000, psel: 0, penable: 0, pwrite: 0, prdata: 00000000, pwdata: 00000000
# Slave driver: SETUP phase detected
# Master monitor: PSEL detected PADDR=6ce2b921 PWRITE=1
# Master monitor: waiting for PENABLE+PREADY
# Slave monitor: PSEL detected PADDR=6ce2b921 PWRITE=1
# Slave monitor: waiting for PENABLE+PREADY
# Time: 390, Phase: SETUP, paddr: 6ce2b921, psel: 1, penable: 0, pwrite: 1, prdata: 00000000, pwdata: e84a3aa1
# Slave driver: ACCESS phase detected, PREADY=0 for 1 wait cycle
# Slave driver: PREADY asserted
# Slave driver: WRITE acknowledgment
# Time: 410, Phase: ACCESS, paddr: 6ce2b921, psel: 1, penable: 1, pwrite: 1, prdata: 00000000, pwdata: e84a3aa1
# Master monitor: captured WRITE data
# Master monitor: captured 
# -------------------------APB_BASE_TRANSFER-------------------------
# DIR.=WRITE
# ADDR=6ce2b921
# DATA=e84a3aa1
# --------------------------------------------------------------
# Slave monitor: captured WRITE data
# Slave monitor: captured 
# -------------------------APB_BASE_TRANSFER-------------------------
# DIR.=WRITE
# ADDR=6ce2b921
# DATA=e84a3aa1
# --------------------------------------------------------------
#  
# -------------------------APB_MASTER_TRANSFER-------------------------
# DIR.=WRITE
# ADDR=6ce2b921
# DATA=e84a3aa1
# --------------------------------------------------------------
# Transaction completed
# Waiting for sequence item
# Time: 430, Phase: ACCESS, paddr: 6ce2b921, psel: 1, penable: 1, pwrite: 1, prdata: 00000000, pwdata: e84a3aa1
# Slave driver: PENABLE low - completing
# Slave driver: transaction completed
# 
# -------------------------APB_BASE_TRANSFER-------------------------
# DIR.=WRITE
# ADDR=6ce2b921
# DATA=e84a3aa1
# --------------------------------------------------------------
# TRANSACTION RECEIVED:
# 
# -------------------------APB_BASE_TRANSFER-------------------------
# DIR.=WRITE
# ADDR=6ce2b921
# DATA=e84a3aa1
# --------------------------------------------------------------
# WRITE NEW: Addr=0x6ce2b921 Data=0xe84a3aa1
# WRITE STORED: Addr=0x6ce2b921 <- Data=0xe84a3aa1
# Comparing master and slave transactions
# ADDR MATCH in compare_transactions
# DATA MATCH in compare_transactions
# Slave monitor: transaction sent to scoreboard
# Slave monitor: waiting for PSEL
# 
# -------------------------APB_BASE_TRANSFER-------------------------
# DIR.=WRITE
# ADDR=6ce2b921
# DATA=e84a3aa1
# --------------------------------------------------------------
# TRANSACTION RECEIVED:
# 
# -------------------------APB_BASE_TRANSFER-------------------------
# DIR.=WRITE
# ADDR=6ce2b921
# DATA=e84a3aa1
# --------------------------------------------------------------
# WRITE SAME VALUE: Addr=0x6ce2b921 Data=0xe84a3aa1
# WRITE STORED: Addr=0x6ce2b921 <- Data=0xe84a3aa1
# Comparing master and slave transactions
# ADDR MATCH in compare_transactions
# DATA MATCH in compare_transactions
# Master monitor: transaction sent to scoreboard
# Master monitor: waiting for PSEL
# Got item: 
# -------------------------APB_MASTER_TRANSFER-------------------------
# DIR.=WRITE
# ADDR=a46e496d
# DATA=23df44e0
# --------------------------------------------------------------
# Slave driver: got item 
# -------------------------APB_SLAVE_TRANSFER-------------------------
# DIR.=WRITE
# ADDR=696deada
# DATA=b354d43b
# --------------------------------------------------------------
# Time: 450, Phase: IDLE, paddr: 6ce2b921, psel: 0, penable: 0, pwrite: 1, prdata: 00000000, pwdata: e84a3aa1
# Time: 470, Phase: IDLE, paddr: 6ce2b921, psel: 0, penable: 0, pwrite: 1, prdata: 00000000, pwdata: e84a3aa1
# Driving: addr=a46e496d data=23df44e0 write=1
# WRITE transaction: PWDATA set
# Time: 490, Phase: IDLE, paddr: 6ce2b921, psel: 0, penable: 0, pwrite: 1, prdata: 00000000, pwdata: e84a3aa1
# Slave driver: SETUP phase detected
# Master monitor: PSEL detected PADDR=a46e496d PWRITE=1
# Master monitor: waiting for PENABLE+PREADY
# Slave monitor: PSEL detected PADDR=a46e496d PWRITE=1
# Slave monitor: waiting for PENABLE+PREADY
# Time: 510, Phase: SETUP, paddr: a46e496d, psel: 1, penable: 0, pwrite: 1, prdata: 00000000, pwdata: 23df44e0
# Slave driver: ACCESS phase detected, PREADY=0 for 1 wait cycle
# Slave driver: PREADY asserted
# Slave driver: WRITE acknowledgment
# Time: 530, Phase: ACCESS, paddr: a46e496d, psel: 1, penable: 1, pwrite: 1, prdata: 00000000, pwdata: 23df44e0
# Master monitor: captured WRITE data
# Master monitor: captured 
# -------------------------APB_BASE_TRANSFER-------------------------
# DIR.=WRITE
# ADDR=a46e496d
# DATA=23df44e0
# --------------------------------------------------------------
# Slave monitor: captured WRITE data
# Slave monitor: captured 
# -------------------------APB_BASE_TRANSFER-------------------------
# DIR.=WRITE
# ADDR=a46e496d
# DATA=23df44e0
# --------------------------------------------------------------
#  
# -------------------------APB_MASTER_TRANSFER-------------------------
# DIR.=WRITE
# ADDR=a46e496d
# DATA=23df44e0
# --------------------------------------------------------------
# Transaction completed
# Waiting for sequence item
# Time: 550, Phase: ACCESS, paddr: a46e496d, psel: 1, penable: 1, pwrite: 1, prdata: 00000000, pwdata: 23df44e0
# Slave driver: PENABLE low - completing
# Slave driver: transaction completed
# 
# -------------------------APB_BASE_TRANSFER-------------------------
# DIR.=WRITE
# ADDR=a46e496d
# DATA=23df44e0
# --------------------------------------------------------------
# TRANSACTION RECEIVED:
# 
# -------------------------APB_BASE_TRANSFER-------------------------
# DIR.=WRITE
# ADDR=a46e496d
# DATA=23df44e0
# --------------------------------------------------------------
# WRITE NEW: Addr=0xa46e496d Data=0x23df44e0
# WRITE STORED: Addr=0xa46e496d <- Data=0x23df44e0
# Comparing master and slave transactions
# ADDR MATCH in compare_transactions
# DATA MATCH in compare_transactions
# Slave monitor: transaction sent to scoreboard
# Slave monitor: waiting for PSEL
# 
# -------------------------APB_BASE_TRANSFER-------------------------
# DIR.=WRITE
# ADDR=a46e496d
# DATA=23df44e0
# --------------------------------------------------------------
# TRANSACTION RECEIVED:
# 
# -------------------------APB_BASE_TRANSFER-------------------------
# DIR.=WRITE
# ADDR=a46e496d
# DATA=23df44e0
# --------------------------------------------------------------
# WRITE SAME VALUE: Addr=0xa46e496d Data=0x23df44e0
# WRITE STORED: Addr=0xa46e496d <- Data=0x23df44e0
# Comparing master and slave transactions
# ADDR MATCH in compare_transactions
# DATA MATCH in compare_transactions
# Master monitor: transaction sent to scoreboard
# Master monitor: waiting for PSEL
# Got item: 
# -------------------------APB_MASTER_TRANSFER-------------------------
# DIR.=READ
# ADDR=38bbbe19
# DATA=ef9c55dc
# --------------------------------------------------------------
# Slave driver: got item 
# -------------------------APB_SLAVE_TRANSFER-------------------------
# DIR.=READ
# ADDR=d6ed7740
# DATA=6295d1c9
# --------------------------------------------------------------
# Time: 570, Phase: IDLE, paddr: a46e496d, psel: 0, penable: 0, pwrite: 1, prdata: 00000000, pwdata: 23df44e0
# Time: 590, Phase: IDLE, paddr: a46e496d, psel: 0, penable: 0, pwrite: 1, prdata: 00000000, pwdata: 23df44e0
# Driving: addr=38bbbe19 data=ef9c55dc write=0
# READ transaction: PWDATA cleared
# Time: 610, Phase: IDLE, paddr: a46e496d, psel: 0, penable: 0, pwrite: 1, prdata: 00000000, pwdata: 23df44e0
# Slave driver: SETUP phase detected
# Master monitor: PSEL detected PADDR=38bbbe19 PWRITE=0
# Master monitor: waiting for PENABLE+PREADY
# Slave monitor: PSEL detected PADDR=38bbbe19 PWRITE=0
# Slave monitor: waiting for PENABLE+PREADY
# Time: 630, Phase: SETUP, paddr: 38bbbe19, psel: 1, penable: 0, pwrite: 0, prdata: 00000000, pwdata: 00000000
# Slave driver: ACCESS phase detected, PREADY=0 for 1 wait cycle
# Slave driver: PREADY asserted
# Slave driver: READ response PRDATA=0x6295d1c9
# Time: 650, Phase: ACCESS, paddr: 38bbbe19, psel: 1, penable: 1, pwrite: 0, prdata: 00000000, pwdata: 00000000
# Master monitor: captured READ data
# Master monitor: captured 
# -------------------------APB_BASE_TRANSFER-------------------------
# DIR.=READ
# ADDR=38bbbe19
# DATA=6295d1c9
# --------------------------------------------------------------
# Slave monitor: captured READ data
# Slave monitor: captured 
# -------------------------APB_BASE_TRANSFER-------------------------
# DIR.=READ
# ADDR=38bbbe19
# DATA=6295d1c9
# --------------------------------------------------------------
#  
# -------------------------APB_MASTER_TRANSFER-------------------------
# DIR.=READ
# ADDR=38bbbe19
# DATA=ef9c55dc
# --------------------------------------------------------------
# Transaction completed
# Waiting for sequence item
# Time: 670, Phase: ACCESS, paddr: 38bbbe19, psel: 1, penable: 1, pwrite: 0, prdata: 6295d1c9, pwdata: 00000000
# Slave driver: PENABLE low - completing
# Slave driver: transaction completed
# 
# -------------------------APB_BASE_TRANSFER-------------------------
# DIR.=READ
# ADDR=38bbbe19
# DATA=6295d1c9
# --------------------------------------------------------------
# TRANSACTION RECEIVED:
# 
# -------------------------APB_BASE_TRANSFER-------------------------
# DIR.=READ
# ADDR=38bbbe19
# DATA=6295d1c9
# --------------------------------------------------------------
# READ uninitialised 0x38bbbe19: Default=0xdeadbeef Act=0x6295d1c9
# Slave monitor: transaction sent to scoreboard
# Slave monitor: waiting for PSEL
# 
# -------------------------APB_BASE_TRANSFER-------------------------
# DIR.=READ
# ADDR=38bbbe19
# DATA=6295d1c9
# --------------------------------------------------------------
# TRANSACTION RECEIVED:
# 
# -------------------------APB_BASE_TRANSFER-------------------------
# DIR.=READ
# ADDR=38bbbe19
# DATA=6295d1c9
# --------------------------------------------------------------
# READ uninitialised 0x38bbbe19: Default=0xdeadbeef Act=0x6295d1c9
# Master monitor: transaction sent to scoreboard
# Master monitor: waiting for PSEL
# Got item: 
# -------------------------APB_MASTER_TRANSFER-------------------------
# DIR.=WRITE
# ADDR=f3fbe39c
# DATA=116941ef
# --------------------------------------------------------------
# Slave driver: got item 
# -------------------------APB_SLAVE_TRANSFER-------------------------
# DIR.=WRITE
# ADDR=b34c66b4
# DATA=528a3c7a
# --------------------------------------------------------------
# Time: 690, Phase: IDLE, paddr: 38bbbe19, psel: 0, penable: 0, pwrite: 0, prdata: 6295d1c9, pwdata: 00000000
# Time: 710, Phase: IDLE, paddr: 38bbbe19, psel: 0, penable: 0, pwrite: 0, prdata: 6295d1c9, pwdata: 00000000
# Time: 730, Phase: IDLE, paddr: 38bbbe19, psel: 0, penable: 0, pwrite: 0, prdata: 6295d1c9, pwdata: 00000000
# Time: 750, Phase: IDLE, paddr: 38bbbe19, psel: 0, penable: 0, pwrite: 0, prdata: 6295d1c9, pwdata: 00000000
# Time: 770, Phase: IDLE, paddr: 38bbbe19, psel: 0, penable: 0, pwrite: 0, prdata: 6295d1c9, pwdata: 00000000
# Time: 790, Phase: IDLE, paddr: 38bbbe19, psel: 0, penable: 0, pwrite: 0, prdata: 6295d1c9, pwdata: 00000000
# Time: 810, Phase: IDLE, paddr: 38bbbe19, psel: 0, penable: 0, pwrite: 0, prdata: 6295d1c9, pwdata: 00000000
# Time: 830, Phase: IDLE, paddr: 38bbbe19, psel: 0, penable: 0, pwrite: 0, prdata: 6295d1c9, pwdata: 00000000
# Time: 850, Phase: IDLE, paddr: 38bbbe19, psel: 0, penable: 0, pwrite: 0, prdata: 6295d1c9, pwdata: 00000000
# Driving: addr=f3fbe39c data=116941ef write=1
# WRITE transaction: PWDATA set
# Time: 870, Phase: IDLE, paddr: 38bbbe19, psel: 0, penable: 0, pwrite: 0, prdata: 6295d1c9, pwdata: 00000000
# Slave driver: SETUP phase detected
# Master monitor: PSEL detected PADDR=f3fbe39c PWRITE=1
# Master monitor: waiting for PENABLE+PREADY
# Slave monitor: PSEL detected PADDR=f3fbe39c PWRITE=1
# Slave monitor: waiting for PENABLE+PREADY
# Time: 890, Phase: SETUP, paddr: f3fbe39c, psel: 1, penable: 0, pwrite: 1, prdata: 6295d1c9, pwdata: 116941ef
# Slave driver: ACCESS phase detected, PREADY=0 for 1 wait cycle
# Slave driver: PREADY asserted
# Slave driver: WRITE acknowledgment
# Time: 910, Phase: ACCESS, paddr: f3fbe39c, psel: 1, penable: 1, pwrite: 1, prdata: 6295d1c9, pwdata: 116941ef
# Master monitor: captured WRITE data
# Master monitor: captured 
# -------------------------APB_BASE_TRANSFER-------------------------
# DIR.=WRITE
# ADDR=f3fbe39c
# DATA=116941ef
# --------------------------------------------------------------
# Slave monitor: captured WRITE data
# Slave monitor: captured 
# -------------------------APB_BASE_TRANSFER-------------------------
# DIR.=WRITE
# ADDR=f3fbe39c
# DATA=116941ef
# --------------------------------------------------------------
#  
# -------------------------APB_MASTER_TRANSFER-------------------------
# DIR.=WRITE
# ADDR=f3fbe39c
# DATA=116941ef
# --------------------------------------------------------------
# Transaction completed
# Waiting for sequence item
# Time: 930, Phase: ACCESS, paddr: f3fbe39c, psel: 1, penable: 1, pwrite: 1, prdata: 00000000, pwdata: 116941ef
# Slave driver: PENABLE low - completing
# Slave driver: transaction completed
# 
# -------------------------APB_BASE_TRANSFER-------------------------
# DIR.=WRITE
# ADDR=f3fbe39c
# DATA=116941ef
# --------------------------------------------------------------
# TRANSACTION RECEIVED:
# 
# -------------------------APB_BASE_TRANSFER-------------------------
# DIR.=WRITE
# ADDR=f3fbe39c
# DATA=116941ef
# --------------------------------------------------------------
# WRITE NEW: Addr=0xf3fbe39c Data=0x116941ef
# WRITE STORED: Addr=0xf3fbe39c <- Data=0x116941ef
# Comparing master and slave transactions
# ADDR MATCH in compare_transactions
# DATA MATCH in compare_transactions
# Slave monitor: transaction sent to scoreboard
# Slave monitor: waiting for PSEL
# 
# -------------------------APB_BASE_TRANSFER-------------------------
# DIR.=WRITE
# ADDR=f3fbe39c
# DATA=116941ef
# --------------------------------------------------------------
# TRANSACTION RECEIVED:
# 
# -------------------------APB_BASE_TRANSFER-------------------------
# DIR.=WRITE
# ADDR=f3fbe39c
# DATA=116941ef
# --------------------------------------------------------------
# WRITE SAME VALUE: Addr=0xf3fbe39c Data=0x116941ef
# WRITE STORED: Addr=0xf3fbe39c <- Data=0x116941ef
# Comparing master and slave transactions
# ADDR MATCH in compare_transactions
# DATA MATCH in compare_transactions
# Master monitor: transaction sent to scoreboard
# Master monitor: waiting for PSEL
# Got item: 
# -------------------------APB_MASTER_TRANSFER-------------------------
# DIR.=WRITE
# ADDR=adc7237b
# DATA=4b9ca550
# --------------------------------------------------------------
# Slave driver: got item 
# -------------------------APB_SLAVE_TRANSFER-------------------------
# DIR.=WRITE
# ADDR=7579b2c8
# DATA=e4aa7b35
# --------------------------------------------------------------
# Time: 950, Phase: IDLE, paddr: f3fbe39c, psel: 0, penable: 0, pwrite: 1, prdata: 00000000, pwdata: 116941ef
# Time: 970, Phase: IDLE, paddr: f3fbe39c, psel: 0, penable: 0, pwrite: 1, prdata: 00000000, pwdata: 116941ef
# Time: 990, Phase: IDLE, paddr: f3fbe39c, psel: 0, penable: 0, pwrite: 1, prdata: 00000000, pwdata: 116941ef
# Time: 1010, Phase: IDLE, paddr: f3fbe39c, psel: 0, penable: 0, pwrite: 1, prdata: 00000000, pwdata: 116941ef
# Time: 1030, Phase: IDLE, paddr: f3fbe39c, psel: 0, penable: 0, pwrite: 1, prdata: 00000000, pwdata: 116941ef
# Time: 1050, Phase: IDLE, paddr: f3fbe39c, psel: 0, penable: 0, pwrite: 1, prdata: 00000000, pwdata: 116941ef
# Time: 1070, Phase: IDLE, paddr: f3fbe39c, psel: 0, penable: 0, pwrite: 1, prdata: 00000000, pwdata: 116941ef
# Time: 1090, Phase: IDLE, paddr: f3fbe39c, psel: 0, penable: 0, pwrite: 1, prdata: 00000000, pwdata: 116941ef
# Driving: addr=adc7237b data=4b9ca550 write=1
# WRITE transaction: PWDATA set
# Time: 1110, Phase: IDLE, paddr: f3fbe39c, psel: 0, penable: 0, pwrite: 1, prdata: 00000000, pwdata: 116941ef
# Slave driver: SETUP phase detected
# Master monitor: PSEL detected PADDR=adc7237b PWRITE=1
# Master monitor: waiting for PENABLE+PREADY
# Slave monitor: PSEL detected PADDR=adc7237b PWRITE=1
# Slave monitor: waiting for PENABLE+PREADY
# Time: 1130, Phase: SETUP, paddr: adc7237b, psel: 1, penable: 0, pwrite: 1, prdata: 00000000, pwdata: 4b9ca550
# Slave driver: ACCESS phase detected, PREADY=0 for 1 wait cycle
# Slave driver: PREADY asserted
# Slave driver: WRITE acknowledgment
# Time: 1150, Phase: ACCESS, paddr: adc7237b, psel: 1, penable: 1, pwrite: 1, prdata: 00000000, pwdata: 4b9ca550
# Master monitor: captured WRITE data
# Master monitor: captured 
# -------------------------APB_BASE_TRANSFER-------------------------
# DIR.=WRITE
# ADDR=adc7237b
# DATA=4b9ca550
# --------------------------------------------------------------
# Slave monitor: captured WRITE data
# Slave monitor: captured 
# -------------------------APB_BASE_TRANSFER-------------------------
# DIR.=WRITE
# ADDR=adc7237b
# DATA=4b9ca550
# --------------------------------------------------------------
#  
# -------------------------APB_MASTER_TRANSFER-------------------------
# DIR.=WRITE
# ADDR=adc7237b
# DATA=4b9ca550
# --------------------------------------------------------------
# Transaction completed
# Waiting for sequence item
# Time: 1170, Phase: ACCESS, paddr: adc7237b, psel: 1, penable: 1, pwrite: 1, prdata: 00000000, pwdata: 4b9ca550
# Slave driver: PENABLE low - completing
# Slave driver: transaction completed
# 
# -------------------------APB_BASE_TRANSFER-------------------------
# DIR.=WRITE
# ADDR=adc7237b
# DATA=4b9ca550
# --------------------------------------------------------------
# TRANSACTION RECEIVED:
# 
# -------------------------APB_BASE_TRANSFER-------------------------
# DIR.=WRITE
# ADDR=adc7237b
# DATA=4b9ca550
# --------------------------------------------------------------
# WRITE NEW: Addr=0xadc7237b Data=0x4b9ca550
# WRITE STORED: Addr=0xadc7237b <- Data=0x4b9ca550
# Comparing master and slave transactions
# ADDR MATCH in compare_transactions
# DATA MATCH in compare_transactions
# Slave monitor: transaction sent to scoreboard
# Slave monitor: waiting for PSEL
# 
# -------------------------APB_BASE_TRANSFER-------------------------
# DIR.=WRITE
# ADDR=adc7237b
# DATA=4b9ca550
# --------------------------------------------------------------
# TRANSACTION RECEIVED:
# 
# -------------------------APB_BASE_TRANSFER-------------------------
# DIR.=WRITE
# ADDR=adc7237b
# DATA=4b9ca550
# --------------------------------------------------------------
# WRITE SAME VALUE: Addr=0xadc7237b Data=0x4b9ca550
# WRITE STORED: Addr=0xadc7237b <- Data=0x4b9ca550
# Comparing master and slave transactions
# ADDR MATCH in compare_transactions
# DATA MATCH in compare_transactions
# Master monitor: transaction sent to scoreboard
# Master monitor: waiting for PSEL
# Got item: 
# -------------------------APB_MASTER_TRANSFER-------------------------
# DIR.=WRITE
# ADDR=9fb88842
# DATA=135e5144
# --------------------------------------------------------------
# Slave driver: got item 
# -------------------------APB_SLAVE_TRANSFER-------------------------
# DIR.=WRITE
# ADDR=6be751d7
# DATA=6f731fe1
# --------------------------------------------------------------
# Time: 1190, Phase: IDLE, paddr: adc7237b, psel: 0, penable: 0, pwrite: 1, prdata: 00000000, pwdata: 4b9ca550
# Time: 1210, Phase: IDLE, paddr: adc7237b, psel: 0, penable: 0, pwrite: 1, prdata: 00000000, pwdata: 4b9ca550
# Time: 1230, Phase: IDLE, paddr: adc7237b, psel: 0, penable: 0, pwrite: 1, prdata: 00000000, pwdata: 4b9ca550
# Time: 1250, Phase: IDLE, paddr: adc7237b, psel: 0, penable: 0, pwrite: 1, prdata: 00000000, pwdata: 4b9ca550
# Driving: addr=9fb88842 data=135e5144 write=1
# WRITE transaction: PWDATA set
# Time: 1270, Phase: IDLE, paddr: adc7237b, psel: 0, penable: 0, pwrite: 1, prdata: 00000000, pwdata: 4b9ca550
# Slave driver: SETUP phase detected
# Master monitor: PSEL detected PADDR=9fb88842 PWRITE=1
# Master monitor: waiting for PENABLE+PREADY
# Slave monitor: PSEL detected PADDR=9fb88842 PWRITE=1
# Slave monitor: waiting for PENABLE+PREADY
# Time: 1290, Phase: SETUP, paddr: 9fb88842, psel: 1, penable: 0, pwrite: 1, prdata: 00000000, pwdata: 135e5144
# Slave driver: ACCESS phase detected, PREADY=0 for 1 wait cycle
# Slave driver: PREADY asserted
# Slave driver: WRITE acknowledgment
# Time: 1310, Phase: ACCESS, paddr: 9fb88842, psel: 1, penable: 1, pwrite: 1, prdata: 00000000, pwdata: 135e5144
# Master monitor: captured WRITE data
# Master monitor: captured 
# -------------------------APB_BASE_TRANSFER-------------------------
# DIR.=WRITE
# ADDR=9fb88842
# DATA=135e5144
# --------------------------------------------------------------
# Slave monitor: captured WRITE data
# Slave monitor: captured 
# -------------------------APB_BASE_TRANSFER-------------------------
# DIR.=WRITE
# ADDR=9fb88842
# DATA=135e5144
# --------------------------------------------------------------
#  
# -------------------------APB_MASTER_TRANSFER-------------------------
# DIR.=WRITE
# ADDR=9fb88842
# DATA=135e5144
# --------------------------------------------------------------
# Transaction completed
# Waiting for sequence item
# Time: 1330, Phase: ACCESS, paddr: 9fb88842, psel: 1, penable: 1, pwrite: 1, prdata: 00000000, pwdata: 135e5144
# Slave driver: PENABLE low - completing
# Slave driver: transaction completed
# 
# -------------------------APB_BASE_TRANSFER-------------------------
# DIR.=WRITE
# ADDR=9fb88842
# DATA=135e5144
# --------------------------------------------------------------
# TRANSACTION RECEIVED:
# 
# -------------------------APB_BASE_TRANSFER-------------------------
# DIR.=WRITE
# ADDR=9fb88842
# DATA=135e5144
# --------------------------------------------------------------
# WRITE NEW: Addr=0x9fb88842 Data=0x135e5144
# WRITE STORED: Addr=0x9fb88842 <- Data=0x135e5144
# Comparing master and slave transactions
# ADDR MATCH in compare_transactions
# DATA MATCH in compare_transactions
# Slave monitor: transaction sent to scoreboard
# Slave monitor: waiting for PSEL
# 
# -------------------------APB_BASE_TRANSFER-------------------------
# DIR.=WRITE
# ADDR=9fb88842
# DATA=135e5144
# --------------------------------------------------------------
# TRANSACTION RECEIVED:
# 
# -------------------------APB_BASE_TRANSFER-------------------------
# DIR.=WRITE
# ADDR=9fb88842
# DATA=135e5144
# --------------------------------------------------------------
# WRITE SAME VALUE: Addr=0x9fb88842 Data=0x135e5144
# WRITE STORED: Addr=0x9fb88842 <- Data=0x135e5144
# Comparing master and slave transactions
# ADDR MATCH in compare_transactions
# DATA MATCH in compare_transactions
# Master monitor: transaction sent to scoreboard
# Master monitor: waiting for PSEL
# Got item: 
# -------------------------APB_MASTER_TRANSFER-------------------------
# DIR.=READ
# ADDR=74edd27f
# DATA=4483dc7b
# --------------------------------------------------------------
# Slave driver: got item 
# -------------------------APB_SLAVE_TRANSFER-------------------------
# DIR.=READ
# ADDR=89cfd70b
# DATA=d6b95bf4
# --------------------------------------------------------------
# Time: 1350, Phase: IDLE, paddr: 9fb88842, psel: 0, penable: 0, pwrite: 1, prdata: 00000000, pwdata: 135e5144
# Time: 1370, Phase: IDLE, paddr: 9fb88842, psel: 0, penable: 0, pwrite: 1, prdata: 00000000, pwdata: 135e5144
# Time: 1390, Phase: IDLE, paddr: 9fb88842, psel: 0, penable: 0, pwrite: 1, prdata: 00000000, pwdata: 135e5144
# Time: 1410, Phase: IDLE, paddr: 9fb88842, psel: 0, penable: 0, pwrite: 1, prdata: 00000000, pwdata: 135e5144
# Time: 1430, Phase: IDLE, paddr: 9fb88842, psel: 0, penable: 0, pwrite: 1, prdata: 00000000, pwdata: 135e5144
# Time: 1450, Phase: IDLE, paddr: 9fb88842, psel: 0, penable: 0, pwrite: 1, prdata: 00000000, pwdata: 135e5144
# Time: 1470, Phase: IDLE, paddr: 9fb88842, psel: 0, penable: 0, pwrite: 1, prdata: 00000000, pwdata: 135e5144
# Time: 1490, Phase: IDLE, paddr: 9fb88842, psel: 0, penable: 0, pwrite: 1, prdata: 00000000, pwdata: 135e5144
# Driving: addr=74edd27f data=4483dc7b write=0
# READ transaction: PWDATA cleared
# Time: 1510, Phase: IDLE, paddr: 9fb88842, psel: 0, penable: 0, pwrite: 1, prdata: 00000000, pwdata: 135e5144
# Slave driver: SETUP phase detected
# Master monitor: PSEL detected PADDR=74edd27f PWRITE=0
# Master monitor: waiting for PENABLE+PREADY
# Slave monitor: PSEL detected PADDR=74edd27f PWRITE=0
# Slave monitor: waiting for PENABLE+PREADY
# Time: 1530, Phase: SETUP, paddr: 74edd27f, psel: 1, penable: 0, pwrite: 0, prdata: 00000000, pwdata: 00000000
# Slave driver: ACCESS phase detected, PREADY=0 for 1 wait cycle
# Slave driver: PREADY asserted
# Slave driver: READ response PRDATA=0xd6b95bf4
# Time: 1550, Phase: ACCESS, paddr: 74edd27f, psel: 1, penable: 1, pwrite: 0, prdata: 00000000, pwdata: 00000000
# Master monitor: captured READ data
# Master monitor: captured 
# -------------------------APB_BASE_TRANSFER-------------------------
# DIR.=READ
# ADDR=74edd27f
# DATA=d6b95bf4
# --------------------------------------------------------------
# Slave monitor: captured READ data
# Slave monitor: captured 
# -------------------------APB_BASE_TRANSFER-------------------------
# DIR.=READ
# ADDR=74edd27f
# DATA=d6b95bf4
# --------------------------------------------------------------
#  
# -------------------------APB_MASTER_TRANSFER-------------------------
# DIR.=READ
# ADDR=74edd27f
# DATA=4483dc7b
# --------------------------------------------------------------
# Transaction completed
# Waiting for sequence item
# Time: 1570, Phase: ACCESS, paddr: 74edd27f, psel: 1, penable: 1, pwrite: 0, prdata: d6b95bf4, pwdata: 00000000
# Slave driver: PENABLE low - completing
# Slave driver: transaction completed
# 
# -------------------------APB_BASE_TRANSFER-------------------------
# DIR.=READ
# ADDR=74edd27f
# DATA=d6b95bf4
# --------------------------------------------------------------
# TRANSACTION RECEIVED:
# 
# -------------------------APB_BASE_TRANSFER-------------------------
# DIR.=READ
# ADDR=74edd27f
# DATA=d6b95bf4
# --------------------------------------------------------------
# READ uninitialised 0x74edd27f: Default=0xdeadbeef Act=0xd6b95bf4
# Slave monitor: transaction sent to scoreboard
# Slave monitor: waiting for PSEL
# 
# -------------------------APB_BASE_TRANSFER-------------------------
# DIR.=READ
# ADDR=74edd27f
# DATA=d6b95bf4
# --------------------------------------------------------------
# TRANSACTION RECEIVED:
# 
# -------------------------APB_BASE_TRANSFER-------------------------
# DIR.=READ
# ADDR=74edd27f
# DATA=d6b95bf4
# --------------------------------------------------------------
# READ uninitialised 0x74edd27f: Default=0xdeadbeef Act=0xd6b95bf4
# Master monitor: transaction sent to scoreboard
# Master monitor: waiting for PSEL
# Got item: 
# -------------------------APB_MASTER_TRANSFER-------------------------
# DIR.=WRITE
# ADDR=e0951a7
# DATA=fed620a7
# --------------------------------------------------------------
# Slave driver: got item 
# -------------------------APB_SLAVE_TRANSFER-------------------------
# DIR.=READ
# ADDR=e5df1fba
# DATA=5bf3764e
# --------------------------------------------------------------
# Time: 1590, Phase: IDLE, paddr: 74edd27f, psel: 0, penable: 0, pwrite: 0, prdata: d6b95bf4, pwdata: 00000000
# Time: 1610, Phase: IDLE, paddr: 74edd27f, psel: 0, penable: 0, pwrite: 0, prdata: d6b95bf4, pwdata: 00000000
# Time: 1630, Phase: IDLE, paddr: 74edd27f, psel: 0, penable: 0, pwrite: 0, prdata: d6b95bf4, pwdata: 00000000
# Time: 1650, Phase: IDLE, paddr: 74edd27f, psel: 0, penable: 0, pwrite: 0, prdata: d6b95bf4, pwdata: 00000000
# Time: 1670, Phase: IDLE, paddr: 74edd27f, psel: 0, penable: 0, pwrite: 0, prdata: d6b95bf4, pwdata: 00000000
# Time: 1690, Phase: IDLE, paddr: 74edd27f, psel: 0, penable: 0, pwrite: 0, prdata: d6b95bf4, pwdata: 00000000
# Driving: addr=e0951a7 data=fed620a7 write=1
# WRITE transaction: PWDATA set
# Time: 1710, Phase: IDLE, paddr: 74edd27f, psel: 0, penable: 0, pwrite: 0, prdata: d6b95bf4, pwdata: 00000000
# Slave driver: SETUP phase detected
# Master monitor: PSEL detected PADDR=e0951a7 PWRITE=1
# Master monitor: waiting for PENABLE+PREADY
# Slave monitor: PSEL detected PADDR=e0951a7 PWRITE=1
# Slave monitor: waiting for PENABLE+PREADY
# Time: 1730, Phase: SETUP, paddr: 0e0951a7, psel: 1, penable: 0, pwrite: 1, prdata: d6b95bf4, pwdata: fed620a7
# Slave driver: ACCESS phase detected, PREADY=0 for 1 wait cycle
# Slave driver: PREADY asserted
# Slave driver: WRITE acknowledgment
# Time: 1750, Phase: ACCESS, paddr: 0e0951a7, psel: 1, penable: 1, pwrite: 1, prdata: d6b95bf4, pwdata: fed620a7
# Master monitor: captured WRITE data
# Master monitor: captured 
# -------------------------APB_BASE_TRANSFER-------------------------
# DIR.=WRITE
# ADDR=e0951a7
# DATA=fed620a7
# --------------------------------------------------------------
# Slave monitor: captured WRITE data
# Slave monitor: captured 
# -------------------------APB_BASE_TRANSFER-------------------------
# DIR.=WRITE
# ADDR=e0951a7
# DATA=fed620a7
# --------------------------------------------------------------
#  
# -------------------------APB_MASTER_TRANSFER-------------------------
# DIR.=WRITE
# ADDR=e0951a7
# DATA=fed620a7
# --------------------------------------------------------------
# Transaction completed
# Waiting for sequence item
# Time: 1770, Phase: ACCESS, paddr: 0e0951a7, psel: 1, penable: 1, pwrite: 1, prdata: 00000000, pwdata: fed620a7
# Slave driver: PENABLE low - completing
# Slave driver: transaction completed
# 
# -------------------------APB_BASE_TRANSFER-------------------------
# DIR.=WRITE
# ADDR=e0951a7
# DATA=fed620a7
# --------------------------------------------------------------
# TRANSACTION RECEIVED:
# 
# -------------------------APB_BASE_TRANSFER-------------------------
# DIR.=WRITE
# ADDR=e0951a7
# DATA=fed620a7
# --------------------------------------------------------------
# WRITE NEW: Addr=0xe0951a7 Data=0xfed620a7
# WRITE STORED: Addr=0xe0951a7 <- Data=0xfed620a7
# Comparing master and slave transactions
# ADDR MATCH in compare_transactions
# DATA MATCH in compare_transactions
# Slave monitor: transaction sent to scoreboard
# Slave monitor: waiting for PSEL
# 
# -------------------------APB_BASE_TRANSFER-------------------------
# DIR.=WRITE
# ADDR=e0951a7
# DATA=fed620a7
# --------------------------------------------------------------
# TRANSACTION RECEIVED:
# 
# -------------------------APB_BASE_TRANSFER-------------------------
# DIR.=WRITE
# ADDR=e0951a7
# DATA=fed620a7
# --------------------------------------------------------------
# WRITE SAME VALUE: Addr=0xe0951a7 Data=0xfed620a7
# WRITE STORED: Addr=0xe0951a7 <- Data=0xfed620a7
# Comparing master and slave transactions
# ADDR MATCH in compare_transactions
# DATA MATCH in compare_transactions
# Master monitor: transaction sent to scoreboard
# Master monitor: waiting for PSEL
# Got item: 
# -------------------------APB_MASTER_TRANSFER-------------------------
# DIR.=READ
# ADDR=f851fe70
# DATA=b72f8ecb
# --------------------------------------------------------------
# Slave driver: got item 
# -------------------------APB_SLAVE_TRANSFER-------------------------
# DIR.=WRITE
# ADDR=150eb9d6
# DATA=a6237bb1
# --------------------------------------------------------------
# Time: 1790, Phase: IDLE, paddr: 0e0951a7, psel: 0, penable: 0, pwrite: 1, prdata: 00000000, pwdata: fed620a7
# Driving: addr=f851fe70 data=b72f8ecb write=0
# READ transaction: PWDATA cleared
# Time: 1810, Phase: IDLE, paddr: 0e0951a7, psel: 0, penable: 0, pwrite: 1, prdata: 00000000, pwdata: fed620a7
# Slave driver: SETUP phase detected
# Master monitor: PSEL detected PADDR=f851fe70 PWRITE=0
# Master monitor: waiting for PENABLE+PREADY
# Slave monitor: PSEL detected PADDR=f851fe70 PWRITE=0
# Slave monitor: waiting for PENABLE+PREADY
# Time: 1830, Phase: SETUP, paddr: f851fe70, psel: 1, penable: 0, pwrite: 0, prdata: 00000000, pwdata: 00000000
# Slave driver: ACCESS phase detected, PREADY=0 for 1 wait cycle
# Slave driver: PREADY asserted
# Slave driver: READ response PRDATA=0xa6237bb1
# Time: 1850, Phase: ACCESS, paddr: f851fe70, psel: 1, penable: 1, pwrite: 0, prdata: 00000000, pwdata: 00000000
# Master monitor: captured READ data
# Master monitor: captured 
# -------------------------APB_BASE_TRANSFER-------------------------
# DIR.=READ
# ADDR=f851fe70
# DATA=a6237bb1
# --------------------------------------------------------------
# Slave monitor: captured READ data
# Slave monitor: captured 
# -------------------------APB_BASE_TRANSFER-------------------------
# DIR.=READ
# ADDR=f851fe70
# DATA=a6237bb1
# --------------------------------------------------------------
#  
# -------------------------APB_MASTER_TRANSFER-------------------------
# DIR.=READ
# ADDR=f851fe70
# DATA=b72f8ecb
# --------------------------------------------------------------
# Transaction completed
# Waiting for sequence item
# Time: 1870, Phase: ACCESS, paddr: f851fe70, psel: 1, penable: 1, pwrite: 0, prdata: a6237bb1, pwdata: 00000000
# Slave driver: PENABLE low - completing
# Slave driver: transaction completed
# 
# -------------------------APB_BASE_TRANSFER-------------------------
# DIR.=READ
# ADDR=f851fe70
# DATA=a6237bb1
# --------------------------------------------------------------
# TRANSACTION RECEIVED:
# 
# -------------------------APB_BASE_TRANSFER-------------------------
# DIR.=READ
# ADDR=f851fe70
# DATA=a6237bb1
# --------------------------------------------------------------
# READ uninitialised 0xf851fe70: Default=0xdeadbeef Act=0xa6237bb1
# Slave monitor: transaction sent to scoreboard
# Slave monitor: waiting for PSEL
# 
# -------------------------APB_BASE_TRANSFER-------------------------
# DIR.=READ
# ADDR=f851fe70
# DATA=a6237bb1
# --------------------------------------------------------------
# TRANSACTION RECEIVED:
# 
# -------------------------APB_BASE_TRANSFER-------------------------
# DIR.=READ
# ADDR=f851fe70
# DATA=a6237bb1
# --------------------------------------------------------------
# READ uninitialised 0xf851fe70: Default=0xdeadbeef Act=0xa6237bb1
# Master monitor: transaction sent to scoreboard
# Master monitor: waiting for PSEL
# Got item: 
# -------------------------APB_MASTER_TRANSFER-------------------------
# DIR.=WRITE
# ADDR=ad955566
# DATA=51d3a5a7
# --------------------------------------------------------------
# Slave driver: got item 
# -------------------------APB_SLAVE_TRANSFER-------------------------
# DIR.=READ
# ADDR=a3f9dcdc
# DATA=ebf78730
# --------------------------------------------------------------
# Driving: addr=ad955566 data=51d3a5a7 write=1
# WRITE transaction: PWDATA set
# Time: 1890, Phase: IDLE, paddr: f851fe70, psel: 0, penable: 0, pwrite: 0, prdata: a6237bb1, pwdata: 00000000
# Slave driver: SETUP phase detected
# Master monitor: PSEL detected PADDR=ad955566 PWRITE=1
# Master monitor: waiting for PENABLE+PREADY
# Slave monitor: PSEL detected PADDR=ad955566 PWRITE=1
# Slave monitor: waiting for PENABLE+PREADY
# Time: 1910, Phase: SETUP, paddr: ad955566, psel: 1, penable: 0, pwrite: 1, prdata: a6237bb1, pwdata: 51d3a5a7
# Slave driver: ACCESS phase detected, PREADY=0 for 1 wait cycle
# Slave driver: PREADY asserted
# Slave driver: WRITE acknowledgment
# Time: 1930, Phase: ACCESS, paddr: ad955566, psel: 1, penable: 1, pwrite: 1, prdata: a6237bb1, pwdata: 51d3a5a7
# Master monitor: captured WRITE data
# Master monitor: captured 
# -------------------------APB_BASE_TRANSFER-------------------------
# DIR.=WRITE
# ADDR=ad955566
# DATA=51d3a5a7
# --------------------------------------------------------------
# Slave monitor: captured WRITE data
# Slave monitor: captured 
# -------------------------APB_BASE_TRANSFER-------------------------
# DIR.=WRITE
# ADDR=ad955566
# DATA=51d3a5a7
# --------------------------------------------------------------
#  
# -------------------------APB_MASTER_TRANSFER-------------------------
# DIR.=WRITE
# ADDR=ad955566
# DATA=51d3a5a7
# --------------------------------------------------------------
# Transaction completed
# Waiting for sequence item
# Time: 1950, Phase: ACCESS, paddr: ad955566, psel: 1, penable: 1, pwrite: 1, prdata: 00000000, pwdata: 51d3a5a7
# Slave driver: PENABLE low - completing
# Slave driver: transaction completed
# 
# -------------------------APB_BASE_TRANSFER-------------------------
# DIR.=WRITE
# ADDR=ad955566
# DATA=51d3a5a7
# --------------------------------------------------------------
# TRANSACTION RECEIVED:
# 
# -------------------------APB_BASE_TRANSFER-------------------------
# DIR.=WRITE
# ADDR=ad955566
# DATA=51d3a5a7
# --------------------------------------------------------------
# WRITE NEW: Addr=0xad955566 Data=0x51d3a5a7
# WRITE STORED: Addr=0xad955566 <- Data=0x51d3a5a7
# Comparing master and slave transactions
# ADDR MATCH in compare_transactions
# DATA MATCH in compare_transactions
# Slave monitor: transaction sent to scoreboard
# Slave monitor: waiting for PSEL
# 
# -------------------------APB_BASE_TRANSFER-------------------------
# DIR.=WRITE
# ADDR=ad955566
# DATA=51d3a5a7
# --------------------------------------------------------------
# TRANSACTION RECEIVED:
# 
# -------------------------APB_BASE_TRANSFER-------------------------
# DIR.=WRITE
# ADDR=ad955566
# DATA=51d3a5a7
# --------------------------------------------------------------
# WRITE SAME VALUE: Addr=0xad955566 Data=0x51d3a5a7
# WRITE STORED: Addr=0xad955566 <- Data=0x51d3a5a7
# Comparing master and slave transactions
# ADDR MATCH in compare_transactions
# DATA MATCH in compare_transactions
# Master monitor: transaction sent to scoreboard
# Master monitor: waiting for PSEL
# Slave driver: got item 
# -------------------------APB_SLAVE_TRANSFER-------------------------
# DIR.=WRITE
# ADDR=d6651848
# DATA=9632e4b4
# --------------------------------------------------------------
# Got item: 
# -------------------------APB_MASTER_TRANSFER-------------------------
# DIR.=READ
# ADDR=4c24e47a
# DATA=da6f4a67
# --------------------------------------------------------------
# Time: 1970, Phase: IDLE, paddr: ad955566, psel: 0, penable: 0, pwrite: 1, prdata: 00000000, pwdata: 51d3a5a7
# Time: 1990, Phase: IDLE, paddr: ad955566, psel: 0, penable: 0, pwrite: 1, prdata: 00000000, pwdata: 51d3a5a7
# Time: 2010, Phase: IDLE, paddr: ad955566, psel: 0, penable: 0, pwrite: 1, prdata: 00000000, pwdata: 51d3a5a7
# Time: 2030, Phase: IDLE, paddr: ad955566, psel: 0, penable: 0, pwrite: 1, prdata: 00000000, pwdata: 51d3a5a7
# Time: 2050, Phase: IDLE, paddr: ad955566, psel: 0, penable: 0, pwrite: 1, prdata: 00000000, pwdata: 51d3a5a7
# Time: 2070, Phase: IDLE, paddr: ad955566, psel: 0, penable: 0, pwrite: 1, prdata: 00000000, pwdata: 51d3a5a7
# Driving: addr=4c24e47a data=da6f4a67 write=0
# READ transaction: PWDATA cleared
# Time: 2090, Phase: IDLE, paddr: ad955566, psel: 0, penable: 0, pwrite: 1, prdata: 00000000, pwdata: 51d3a5a7
# Slave driver: SETUP phase detected
# Master monitor: PSEL detected PADDR=4c24e47a PWRITE=0
# Master monitor: waiting for PENABLE+PREADY
# Slave monitor: PSEL detected PADDR=4c24e47a PWRITE=0
# Slave monitor: waiting for PENABLE+PREADY
# Time: 2110, Phase: SETUP, paddr: 4c24e47a, psel: 1, penable: 0, pwrite: 0, prdata: 00000000, pwdata: 00000000
# Slave driver: ACCESS phase detected, PREADY=0 for 1 wait cycle
# Slave driver: PREADY asserted
# Slave driver: READ response PRDATA=0x9632e4b4
# Time: 2130, Phase: ACCESS, paddr: 4c24e47a, psel: 1, penable: 1, pwrite: 0, prdata: 00000000, pwdata: 00000000
# Master monitor: captured READ data
# Master monitor: captured 
# -------------------------APB_BASE_TRANSFER-------------------------
# DIR.=READ
# ADDR=4c24e47a
# DATA=9632e4b4
# --------------------------------------------------------------
# Slave monitor: captured READ data
# Slave monitor: captured 
# -------------------------APB_BASE_TRANSFER-------------------------
# DIR.=READ
# ADDR=4c24e47a
# DATA=9632e4b4
# --------------------------------------------------------------
#  
# -------------------------APB_MASTER_TRANSFER-------------------------
# DIR.=READ
# ADDR=4c24e47a
# DATA=da6f4a67
# --------------------------------------------------------------
# Transaction completed
# Waiting for sequence item
# Time: 2150, Phase: ACCESS, paddr: 4c24e47a, psel: 1, penable: 1, pwrite: 0, prdata: 9632e4b4, pwdata: 00000000
# Slave driver: PENABLE low - completing
# Slave driver: transaction completed
# 
# -------------------------APB_BASE_TRANSFER-------------------------
# DIR.=READ
# ADDR=4c24e47a
# DATA=9632e4b4
# --------------------------------------------------------------
# TRANSACTION RECEIVED:
# 
# -------------------------APB_BASE_TRANSFER-------------------------
# DIR.=READ
# ADDR=4c24e47a
# DATA=9632e4b4
# --------------------------------------------------------------
# READ uninitialised 0x4c24e47a: Default=0xdeadbeef Act=0x9632e4b4
# Slave monitor: transaction sent to scoreboard
# Slave monitor: waiting for PSEL
# 
# -------------------------APB_BASE_TRANSFER-------------------------
# DIR.=READ
# ADDR=4c24e47a
# DATA=9632e4b4
# --------------------------------------------------------------
# TRANSACTION RECEIVED:
# 
# -------------------------APB_BASE_TRANSFER-------------------------
# DIR.=READ
# ADDR=4c24e47a
# DATA=9632e4b4
# --------------------------------------------------------------
# READ uninitialised 0x4c24e47a: Default=0xdeadbeef Act=0x9632e4b4
# Master monitor: transaction sent to scoreboard
# Master monitor: waiting for PSEL
# Got item: 
# -------------------------APB_MASTER_TRANSFER-------------------------
# DIR.=READ
# ADDR=b98f3326
# DATA=3a277b70
# --------------------------------------------------------------
# Slave driver: got item 
# -------------------------APB_SLAVE_TRANSFER-------------------------
# DIR.=READ
# ADDR=4dc81fb3
# DATA=b8c311e0
# --------------------------------------------------------------
# Driving: addr=b98f3326 data=3a277b70 write=0
# READ transaction: PWDATA cleared
# Time: 2170, Phase: IDLE, paddr: 4c24e47a, psel: 0, penable: 0, pwrite: 0, prdata: 9632e4b4, pwdata: 00000000
# Slave driver: SETUP phase detected
# Master monitor: PSEL detected PADDR=b98f3326 PWRITE=0
# Master monitor: waiting for PENABLE+PREADY
# Slave monitor: PSEL detected PADDR=b98f3326 PWRITE=0
# Slave monitor: waiting for PENABLE+PREADY
# Time: 2190, Phase: SETUP, paddr: b98f3326, psel: 1, penable: 0, pwrite: 0, prdata: 9632e4b4, pwdata: 00000000
# Slave driver: ACCESS phase detected, PREADY=0 for 1 wait cycle
# Slave driver: PREADY asserted
# Slave driver: READ response PRDATA=0xb8c311e0
# Time: 2210, Phase: ACCESS, paddr: b98f3326, psel: 1, penable: 1, pwrite: 0, prdata: 9632e4b4, pwdata: 00000000
# Master monitor: captured READ data
# Master monitor: captured 
# -------------------------APB_BASE_TRANSFER-------------------------
# DIR.=READ
# ADDR=b98f3326
# DATA=b8c311e0
# --------------------------------------------------------------
# Slave monitor: captured READ data
# Slave monitor: captured 
# -------------------------APB_BASE_TRANSFER-------------------------
# DIR.=READ
# ADDR=b98f3326
# DATA=b8c311e0
# --------------------------------------------------------------
#  
# -------------------------APB_MASTER_TRANSFER-------------------------
# DIR.=READ
# ADDR=b98f3326
# DATA=3a277b70
# --------------------------------------------------------------
# Transaction completed
# Waiting for sequence item
# Time: 2230, Phase: ACCESS, paddr: b98f3326, psel: 1, penable: 1, pwrite: 0, prdata: b8c311e0, pwdata: 00000000
# Slave driver: PENABLE low - completing
# Slave driver: transaction completed
# 
# -------------------------APB_BASE_TRANSFER-------------------------
# DIR.=READ
# ADDR=b98f3326
# DATA=b8c311e0
# --------------------------------------------------------------
# TRANSACTION RECEIVED:
# 
# -------------------------APB_BASE_TRANSFER-------------------------
# DIR.=READ
# ADDR=b98f3326
# DATA=b8c311e0
# --------------------------------------------------------------
# READ uninitialised 0xb98f3326: Default=0xdeadbeef Act=0xb8c311e0
# Slave monitor: transaction sent to scoreboard
# Slave monitor: waiting for PSEL
# 
# -------------------------APB_BASE_TRANSFER-------------------------
# DIR.=READ
# ADDR=b98f3326
# DATA=b8c311e0
# --------------------------------------------------------------
# TRANSACTION RECEIVED:
# 
# -------------------------APB_BASE_TRANSFER-------------------------
# DIR.=READ
# ADDR=b98f3326
# DATA=b8c311e0
# --------------------------------------------------------------
# READ uninitialised 0xb98f3326: Default=0xdeadbeef Act=0xb8c311e0
# Master monitor: transaction sent to scoreboard
# Master monitor: waiting for PSEL
# Got item: 
# -------------------------APB_MASTER_TRANSFER-------------------------
# DIR.=WRITE
# ADDR=22276ab1
# DATA=c7887e74
# --------------------------------------------------------------
# Slave driver: got item 
# -------------------------APB_SLAVE_TRANSFER-------------------------
# DIR.=WRITE
# ADDR=6e5b2fe2
# DATA=4191cf07
# --------------------------------------------------------------
# Time: 2250, Phase: IDLE, paddr: b98f3326, psel: 0, penable: 0, pwrite: 0, prdata: b8c311e0, pwdata: 00000000
# Time: 2270, Phase: IDLE, paddr: b98f3326, psel: 0, penable: 0, pwrite: 0, prdata: b8c311e0, pwdata: 00000000
# Time: 2290, Phase: IDLE, paddr: b98f3326, psel: 0, penable: 0, pwrite: 0, prdata: b8c311e0, pwdata: 00000000
# Time: 2310, Phase: IDLE, paddr: b98f3326, psel: 0, penable: 0, pwrite: 0, prdata: b8c311e0, pwdata: 00000000
# Time: 2330, Phase: IDLE, paddr: b98f3326, psel: 0, penable: 0, pwrite: 0, prdata: b8c311e0, pwdata: 00000000
# Time: 2350, Phase: IDLE, paddr: b98f3326, psel: 0, penable: 0, pwrite: 0, prdata: b8c311e0, pwdata: 00000000
# Driving: addr=22276ab1 data=c7887e74 write=1
# WRITE transaction: PWDATA set
# Time: 2370, Phase: IDLE, paddr: b98f3326, psel: 0, penable: 0, pwrite: 0, prdata: b8c311e0, pwdata: 00000000
# Slave driver: SETUP phase detected
# Master monitor: PSEL detected PADDR=22276ab1 PWRITE=1
# Master monitor: waiting for PENABLE+PREADY
# Slave monitor: PSEL detected PADDR=22276ab1 PWRITE=1
# Slave monitor: waiting for PENABLE+PREADY
# Time: 2390, Phase: SETUP, paddr: 22276ab1, psel: 1, penable: 0, pwrite: 1, prdata: b8c311e0, pwdata: c7887e74
# Slave driver: ACCESS phase detected, PREADY=0 for 1 wait cycle
# Slave driver: PREADY asserted
# Slave driver: WRITE acknowledgment
# Time: 2410, Phase: ACCESS, paddr: 22276ab1, psel: 1, penable: 1, pwrite: 1, prdata: b8c311e0, pwdata: c7887e74
# Master monitor: captured WRITE data
# Master monitor: captured 
# -------------------------APB_BASE_TRANSFER-------------------------
# DIR.=WRITE
# ADDR=22276ab1
# DATA=c7887e74
# --------------------------------------------------------------
# Slave monitor: captured WRITE data
# Slave monitor: captured 
# -------------------------APB_BASE_TRANSFER-------------------------
# DIR.=WRITE
# ADDR=22276ab1
# DATA=c7887e74
# --------------------------------------------------------------
#  
# -------------------------APB_MASTER_TRANSFER-------------------------
# DIR.=WRITE
# ADDR=22276ab1
# DATA=c7887e74
# --------------------------------------------------------------
# Transaction completed
# Waiting for sequence item
# Time: 2430, Phase: ACCESS, paddr: 22276ab1, psel: 1, penable: 1, pwrite: 1, prdata: 00000000, pwdata: c7887e74
# Slave driver: PENABLE low - completing
# Slave driver: transaction completed
# 
# -------------------------APB_BASE_TRANSFER-------------------------
# DIR.=WRITE
# ADDR=22276ab1
# DATA=c7887e74
# --------------------------------------------------------------
# TRANSACTION RECEIVED:
# 
# -------------------------APB_BASE_TRANSFER-------------------------
# DIR.=WRITE
# ADDR=22276ab1
# DATA=c7887e74
# --------------------------------------------------------------
# WRITE NEW: Addr=0x22276ab1 Data=0xc7887e74
# WRITE STORED: Addr=0x22276ab1 <- Data=0xc7887e74
# Comparing master and slave transactions
# ADDR MATCH in compare_transactions
# DATA MATCH in compare_transactions
# Slave monitor: transaction sent to scoreboard
# Slave monitor: waiting for PSEL
# 
# -------------------------APB_BASE_TRANSFER-------------------------
# DIR.=WRITE
# ADDR=22276ab1
# DATA=c7887e74
# --------------------------------------------------------------
# TRANSACTION RECEIVED:
# 
# -------------------------APB_BASE_TRANSFER-------------------------
# DIR.=WRITE
# ADDR=22276ab1
# DATA=c7887e74
# --------------------------------------------------------------
# WRITE SAME VALUE: Addr=0x22276ab1 Data=0xc7887e74
# WRITE STORED: Addr=0x22276ab1 <- Data=0xc7887e74
# Comparing master and slave transactions
# ADDR MATCH in compare_transactions
# DATA MATCH in compare_transactions
# Master monitor: transaction sent to scoreboard
# Master monitor: waiting for PSEL
# Got item: 
# -------------------------APB_MASTER_TRANSFER-------------------------
# DIR.=READ
# ADDR=228feeaf
# DATA=bb33bb04
# --------------------------------------------------------------
# Slave driver: got item 
# -------------------------APB_SLAVE_TRANSFER-------------------------
# DIR.=WRITE
# ADDR=6c14f44f
# DATA=50432c3a
# --------------------------------------------------------------
# Time: 2450, Phase: IDLE, paddr: 22276ab1, psel: 0, penable: 0, pwrite: 1, prdata: 00000000, pwdata: c7887e74
# Time: 2470, Phase: IDLE, paddr: 22276ab1, psel: 0, penable: 0, pwrite: 1, prdata: 00000000, pwdata: c7887e74
# Time: 2490, Phase: IDLE, paddr: 22276ab1, psel: 0, penable: 0, pwrite: 1, prdata: 00000000, pwdata: c7887e74
# Time: 2510, Phase: IDLE, paddr: 22276ab1, psel: 0, penable: 0, pwrite: 1, prdata: 00000000, pwdata: c7887e74
# Time: 2530, Phase: IDLE, paddr: 22276ab1, psel: 0, penable: 0, pwrite: 1, prdata: 00000000, pwdata: c7887e74
# Time: 2550, Phase: IDLE, paddr: 22276ab1, psel: 0, penable: 0, pwrite: 1, prdata: 00000000, pwdata: c7887e74
# Time: 2570, Phase: IDLE, paddr: 22276ab1, psel: 0, penable: 0, pwrite: 1, prdata: 00000000, pwdata: c7887e74
# Time: 2590, Phase: IDLE, paddr: 22276ab1, psel: 0, penable: 0, pwrite: 1, prdata: 00000000, pwdata: c7887e74
# Time: 2610, Phase: IDLE, paddr: 22276ab1, psel: 0, penable: 0, pwrite: 1, prdata: 00000000, pwdata: c7887e74
# Driving: addr=228feeaf data=bb33bb04 write=0
# READ transaction: PWDATA cleared
# Time: 2630, Phase: IDLE, paddr: 22276ab1, psel: 0, penable: 0, pwrite: 1, prdata: 00000000, pwdata: c7887e74
# Slave driver: SETUP phase detected
# Master monitor: PSEL detected PADDR=228feeaf PWRITE=0
# Master monitor: waiting for PENABLE+PREADY
# Slave monitor: PSEL detected PADDR=228feeaf PWRITE=0
# Slave monitor: waiting for PENABLE+PREADY
# Time: 2650, Phase: SETUP, paddr: 228feeaf, psel: 1, penable: 0, pwrite: 0, prdata: 00000000, pwdata: 00000000
# Slave driver: ACCESS phase detected, PREADY=0 for 1 wait cycle
# Slave driver: PREADY asserted
# Slave driver: READ response PRDATA=0x50432c3a
# Time: 2670, Phase: ACCESS, paddr: 228feeaf, psel: 1, penable: 1, pwrite: 0, prdata: 00000000, pwdata: 00000000
# Master monitor: captured READ data
# Master monitor: captured 
# -------------------------APB_BASE_TRANSFER-------------------------
# DIR.=READ
# ADDR=228feeaf
# DATA=50432c3a
# --------------------------------------------------------------
# Slave monitor: captured READ data
# Slave monitor: captured 
# -------------------------APB_BASE_TRANSFER-------------------------
# DIR.=READ
# ADDR=228feeaf
# DATA=50432c3a
# --------------------------------------------------------------
#  
# -------------------------APB_MASTER_TRANSFER-------------------------
# DIR.=READ
# ADDR=228feeaf
# DATA=bb33bb04
# --------------------------------------------------------------
# Transaction completed
# Waiting for sequence item
# Time: 2690, Phase: ACCESS, paddr: 228feeaf, psel: 1, penable: 1, pwrite: 0, prdata: 50432c3a, pwdata: 00000000
# Slave driver: PENABLE low - completing
# Slave driver: transaction completed
# 
# -------------------------APB_BASE_TRANSFER-------------------------
# DIR.=READ
# ADDR=228feeaf
# DATA=50432c3a
# --------------------------------------------------------------
# TRANSACTION RECEIVED:
# 
# -------------------------APB_BASE_TRANSFER-------------------------
# DIR.=READ
# ADDR=228feeaf
# DATA=50432c3a
# --------------------------------------------------------------
# READ uninitialised 0x228feeaf: Default=0xdeadbeef Act=0x50432c3a
# Slave monitor: transaction sent to scoreboard
# Slave monitor: waiting for PSEL
# 
# -------------------------APB_BASE_TRANSFER-------------------------
# DIR.=READ
# ADDR=228feeaf
# DATA=50432c3a
# --------------------------------------------------------------
# TRANSACTION RECEIVED:
# 
# -------------------------APB_BASE_TRANSFER-------------------------
# DIR.=READ
# ADDR=228feeaf
# DATA=50432c3a
# --------------------------------------------------------------
# READ uninitialised 0x228feeaf: Default=0xdeadbeef Act=0x50432c3a
# Master monitor: transaction sent to scoreboard
# Master monitor: waiting for PSEL
# Got item: 
# -------------------------APB_MASTER_TRANSFER-------------------------
# DIR.=WRITE
# ADDR=2423966d
# DATA=61da3fb2
# --------------------------------------------------------------
# Slave driver: got item 
# -------------------------APB_SLAVE_TRANSFER-------------------------
# DIR.=READ
# ADDR=b6ae4e4
# DATA=2101c747
# --------------------------------------------------------------
# Time: 2710, Phase: IDLE, paddr: 228feeaf, psel: 0, penable: 0, pwrite: 0, prdata: 50432c3a, pwdata: 00000000
# Time: 2730, Phase: IDLE, paddr: 228feeaf, psel: 0, penable: 0, pwrite: 0, prdata: 50432c3a, pwdata: 00000000
# Driving: addr=2423966d data=61da3fb2 write=1
# WRITE transaction: PWDATA set
# Time: 2750, Phase: IDLE, paddr: 228feeaf, psel: 0, penable: 0, pwrite: 0, prdata: 50432c3a, pwdata: 00000000
# Slave driver: SETUP phase detected
# Master monitor: PSEL detected PADDR=2423966d PWRITE=1
# Master monitor: waiting for PENABLE+PREADY
# Slave monitor: PSEL detected PADDR=2423966d PWRITE=1
# Slave monitor: waiting for PENABLE+PREADY
# Time: 2770, Phase: SETUP, paddr: 2423966d, psel: 1, penable: 0, pwrite: 1, prdata: 50432c3a, pwdata: 61da3fb2
# Slave driver: ACCESS phase detected, PREADY=0 for 1 wait cycle
# Slave driver: PREADY asserted
# Slave driver: WRITE acknowledgment
# Time: 2790, Phase: ACCESS, paddr: 2423966d, psel: 1, penable: 1, pwrite: 1, prdata: 50432c3a, pwdata: 61da3fb2
# Master monitor: captured WRITE data
# Master monitor: captured 
# -------------------------APB_BASE_TRANSFER-------------------------
# DIR.=WRITE
# ADDR=2423966d
# DATA=61da3fb2
# --------------------------------------------------------------
# Slave monitor: captured WRITE data
# Slave monitor: captured 
# -------------------------APB_BASE_TRANSFER-------------------------
# DIR.=WRITE
# ADDR=2423966d
# DATA=61da3fb2
# --------------------------------------------------------------
#  
# -------------------------APB_MASTER_TRANSFER-------------------------
# DIR.=WRITE
# ADDR=2423966d
# DATA=61da3fb2
# --------------------------------------------------------------
# Transaction completed
# Waiting for sequence item
# Time: 2810, Phase: ACCESS, paddr: 2423966d, psel: 1, penable: 1, pwrite: 1, prdata: 00000000, pwdata: 61da3fb2
# Slave driver: PENABLE low - completing
# Slave driver: transaction completed
# 
# -------------------------APB_BASE_TRANSFER-------------------------
# DIR.=WRITE
# ADDR=2423966d
# DATA=61da3fb2
# --------------------------------------------------------------
# TRANSACTION RECEIVED:
# 
# -------------------------APB_BASE_TRANSFER-------------------------
# DIR.=WRITE
# ADDR=2423966d
# DATA=61da3fb2
# --------------------------------------------------------------
# WRITE NEW: Addr=0x2423966d Data=0x61da3fb2
# WRITE STORED: Addr=0x2423966d <- Data=0x61da3fb2
# Comparing master and slave transactions
# ADDR MATCH in compare_transactions
# DATA MATCH in compare_transactions
# Slave monitor: transaction sent to scoreboard
# Slave monitor: waiting for PSEL
# 
# -------------------------APB_BASE_TRANSFER-------------------------
# DIR.=WRITE
# ADDR=2423966d
# DATA=61da3fb2
# --------------------------------------------------------------
# TRANSACTION RECEIVED:
# 
# -------------------------APB_BASE_TRANSFER-------------------------
# DIR.=WRITE
# ADDR=2423966d
# DATA=61da3fb2
# --------------------------------------------------------------
# WRITE SAME VALUE: Addr=0x2423966d Data=0x61da3fb2
# WRITE STORED: Addr=0x2423966d <- Data=0x61da3fb2
# Comparing master and slave transactions
# ADDR MATCH in compare_transactions
# DATA MATCH in compare_transactions
# Master monitor: transaction sent to scoreboard
# Master monitor: waiting for PSEL
# Got item: 
# -------------------------APB_MASTER_TRANSFER-------------------------
# DIR.=READ
# ADDR=8bde066b
# DATA=9a259d08
# --------------------------------------------------------------
# Slave driver: got item 
# -------------------------APB_SLAVE_TRANSFER-------------------------
# DIR.=READ
# ADDR=1941adc8
# DATA=148337c0
# --------------------------------------------------------------
# Time: 2830, Phase: IDLE, paddr: 2423966d, psel: 0, penable: 0, pwrite: 1, prdata: 00000000, pwdata: 61da3fb2
# Time: 2850, Phase: IDLE, paddr: 2423966d, psel: 0, penable: 0, pwrite: 1, prdata: 00000000, pwdata: 61da3fb2
# Time: 2870, Phase: IDLE, paddr: 2423966d, psel: 0, penable: 0, pwrite: 1, prdata: 00000000, pwdata: 61da3fb2
# Time: 2890, Phase: IDLE, paddr: 2423966d, psel: 0, penable: 0, pwrite: 1, prdata: 00000000, pwdata: 61da3fb2
# Time: 2910, Phase: IDLE, paddr: 2423966d, psel: 0, penable: 0, pwrite: 1, prdata: 00000000, pwdata: 61da3fb2
# Time: 2930, Phase: IDLE, paddr: 2423966d, psel: 0, penable: 0, pwrite: 1, prdata: 00000000, pwdata: 61da3fb2
# Time: 2950, Phase: IDLE, paddr: 2423966d, psel: 0, penable: 0, pwrite: 1, prdata: 00000000, pwdata: 61da3fb2
# Time: 2970, Phase: IDLE, paddr: 2423966d, psel: 0, penable: 0, pwrite: 1, prdata: 00000000, pwdata: 61da3fb2
# Time: 2990, Phase: IDLE, paddr: 2423966d, psel: 0, penable: 0, pwrite: 1, prdata: 00000000, pwdata: 61da3fb2
# Driving: addr=8bde066b data=9a259d08 write=0
# READ transaction: PWDATA cleared
# Time: 3010, Phase: IDLE, paddr: 2423966d, psel: 0, penable: 0, pwrite: 1, prdata: 00000000, pwdata: 61da3fb2
# Slave driver: SETUP phase detected
# Master monitor: PSEL detected PADDR=8bde066b PWRITE=0
# Master monitor: waiting for PENABLE+PREADY
# Slave monitor: PSEL detected PADDR=8bde066b PWRITE=0
# Slave monitor: waiting for PENABLE+PREADY
# Time: 3030, Phase: SETUP, paddr: 8bde066b, psel: 1, penable: 0, pwrite: 0, prdata: 00000000, pwdata: 00000000
# Slave driver: ACCESS phase detected, PREADY=0 for 1 wait cycle
# Slave driver: PREADY asserted
# Slave driver: READ response PRDATA=0x148337c0
# Time: 3050, Phase: ACCESS, paddr: 8bde066b, psel: 1, penable: 1, pwrite: 0, prdata: 00000000, pwdata: 00000000
# Master monitor: captured READ data
# Master monitor: captured 
# -------------------------APB_BASE_TRANSFER-------------------------
# DIR.=READ
# ADDR=8bde066b
# DATA=148337c0
# --------------------------------------------------------------
# Slave monitor: captured READ data
# Slave monitor: captured 
# -------------------------APB_BASE_TRANSFER-------------------------
# DIR.=READ
# ADDR=8bde066b
# DATA=148337c0
# --------------------------------------------------------------
#  
# -------------------------APB_MASTER_TRANSFER-------------------------
# DIR.=READ
# ADDR=8bde066b
# DATA=9a259d08
# --------------------------------------------------------------
# Transaction completed
# Waiting for sequence item
# Time: 3070, Phase: ACCESS, paddr: 8bde066b, psel: 1, penable: 1, pwrite: 0, prdata: 148337c0, pwdata: 00000000
# Slave driver: PENABLE low - completing
# Slave driver: transaction completed
# 
# -------------------------APB_BASE_TRANSFER-------------------------
# DIR.=READ
# ADDR=8bde066b
# DATA=148337c0
# --------------------------------------------------------------
# TRANSACTION RECEIVED:
# 
# -------------------------APB_BASE_TRANSFER-------------------------
# DIR.=READ
# ADDR=8bde066b
# DATA=148337c0
# --------------------------------------------------------------
# READ uninitialised 0x8bde066b: Default=0xdeadbeef Act=0x148337c0
# Slave monitor: transaction sent to scoreboard
# Slave monitor: waiting for PSEL
# 
# -------------------------APB_BASE_TRANSFER-------------------------
# DIR.=READ
# ADDR=8bde066b
# DATA=148337c0
# --------------------------------------------------------------
# TRANSACTION RECEIVED:
# 
# -------------------------APB_BASE_TRANSFER-------------------------
# DIR.=READ
# ADDR=8bde066b
# DATA=148337c0
# --------------------------------------------------------------
# READ uninitialised 0x8bde066b: Default=0xdeadbeef Act=0x148337c0
# Master monitor: transaction sent to scoreboard
# Master monitor: waiting for PSEL
# Got item: 
# -------------------------APB_MASTER_TRANSFER-------------------------
# DIR.=WRITE
# ADDR=bb87a731
# DATA=c0b6e6db
# --------------------------------------------------------------
# Slave driver: got item 
# -------------------------APB_SLAVE_TRANSFER-------------------------
# DIR.=READ
# ADDR=ff04a92c
# DATA=fe09632e
# --------------------------------------------------------------
# Driving: addr=bb87a731 data=c0b6e6db write=1
# WRITE transaction: PWDATA set
# Time: 3090, Phase: IDLE, paddr: 8bde066b, psel: 0, penable: 0, pwrite: 0, prdata: 148337c0, pwdata: 00000000
# Slave driver: SETUP phase detected
# Master monitor: PSEL detected PADDR=bb87a731 PWRITE=1
# Master monitor: waiting for PENABLE+PREADY
# Slave monitor: PSEL detected PADDR=bb87a731 PWRITE=1
# Slave monitor: waiting for PENABLE+PREADY
# Time: 3110, Phase: SETUP, paddr: bb87a731, psel: 1, penable: 0, pwrite: 1, prdata: 148337c0, pwdata: c0b6e6db
# Slave driver: ACCESS phase detected, PREADY=0 for 1 wait cycle
# Slave driver: PREADY asserted
# Slave driver: WRITE acknowledgment
# Time: 3130, Phase: ACCESS, paddr: bb87a731, psel: 1, penable: 1, pwrite: 1, prdata: 148337c0, pwdata: c0b6e6db
# Master monitor: captured WRITE data
# Master monitor: captured 
# -------------------------APB_BASE_TRANSFER-------------------------
# DIR.=WRITE
# ADDR=bb87a731
# DATA=c0b6e6db
# --------------------------------------------------------------
# Slave monitor: captured WRITE data
# Slave monitor: captured 
# -------------------------APB_BASE_TRANSFER-------------------------
# DIR.=WRITE
# ADDR=bb87a731
# DATA=c0b6e6db
# --------------------------------------------------------------
#  
# -------------------------APB_MASTER_TRANSFER-------------------------
# DIR.=WRITE
# ADDR=bb87a731
# DATA=c0b6e6db
# --------------------------------------------------------------
# Transaction completed
# Waiting for sequence item
# Time: 3150, Phase: ACCESS, paddr: bb87a731, psel: 1, penable: 1, pwrite: 1, prdata: 00000000, pwdata: c0b6e6db
# Slave driver: PENABLE low - completing
# Slave driver: transaction completed
# 
# -------------------------APB_BASE_TRANSFER-------------------------
# DIR.=WRITE
# ADDR=bb87a731
# DATA=c0b6e6db
# --------------------------------------------------------------
# TRANSACTION RECEIVED:
# 
# -------------------------APB_BASE_TRANSFER-------------------------
# DIR.=WRITE
# ADDR=bb87a731
# DATA=c0b6e6db
# --------------------------------------------------------------
# WRITE NEW: Addr=0xbb87a731 Data=0xc0b6e6db
# WRITE STORED: Addr=0xbb87a731 <- Data=0xc0b6e6db
# Comparing master and slave transactions
# ADDR MATCH in compare_transactions
# DATA MATCH in compare_transactions
# Slave monitor: transaction sent to scoreboard
# Slave monitor: waiting for PSEL
# 
# -------------------------APB_BASE_TRANSFER-------------------------
# DIR.=WRITE
# ADDR=bb87a731
# DATA=c0b6e6db
# --------------------------------------------------------------
# TRANSACTION RECEIVED:
# 
# -------------------------APB_BASE_TRANSFER-------------------------
# DIR.=WRITE
# ADDR=bb87a731
# DATA=c0b6e6db
# --------------------------------------------------------------
# WRITE SAME VALUE: Addr=0xbb87a731 Data=0xc0b6e6db
# WRITE STORED: Addr=0xbb87a731 <- Data=0xc0b6e6db
# Comparing master and slave transactions
# ADDR MATCH in compare_transactions
# DATA MATCH in compare_transactions
# Master monitor: transaction sent to scoreboard
# Master monitor: waiting for PSEL
# Got item: 
# -------------------------APB_MASTER_TRANSFER-------------------------
# DIR.=WRITE
# ADDR=a63cdb63
# DATA=e830759f
# --------------------------------------------------------------
# Slave driver: got item 
# -------------------------APB_SLAVE_TRANSFER-------------------------
# DIR.=WRITE
# ADDR=52788f2d
# DATA=5eafa87c
# --------------------------------------------------------------
# Time: 3170, Phase: IDLE, paddr: bb87a731, psel: 0, penable: 0, pwrite: 1, prdata: 00000000, pwdata: c0b6e6db
# Time: 3190, Phase: IDLE, paddr: bb87a731, psel: 0, penable: 0, pwrite: 1, prdata: 00000000, pwdata: c0b6e6db
# Time: 3210, Phase: IDLE, paddr: bb87a731, psel: 0, penable: 0, pwrite: 1, prdata: 00000000, pwdata: c0b6e6db
# Time: 3230, Phase: IDLE, paddr: bb87a731, psel: 0, penable: 0, pwrite: 1, prdata: 00000000, pwdata: c0b6e6db
# Driving: addr=a63cdb63 data=e830759f write=1
# WRITE transaction: PWDATA set
# Time: 3250, Phase: IDLE, paddr: bb87a731, psel: 0, penable: 0, pwrite: 1, prdata: 00000000, pwdata: c0b6e6db
# Slave driver: SETUP phase detected
# Master monitor: PSEL detected PADDR=a63cdb63 PWRITE=1
# Master monitor: waiting for PENABLE+PREADY
# Slave monitor: PSEL detected PADDR=a63cdb63 PWRITE=1
# Slave monitor: waiting for PENABLE+PREADY
# Time: 3270, Phase: SETUP, paddr: a63cdb63, psel: 1, penable: 0, pwrite: 1, prdata: 00000000, pwdata: e830759f
# Slave driver: ACCESS phase detected, PREADY=0 for 1 wait cycle
# Slave driver: PREADY asserted
# Slave driver: WRITE acknowledgment
# Time: 3290, Phase: ACCESS, paddr: a63cdb63, psel: 1, penable: 1, pwrite: 1, prdata: 00000000, pwdata: e830759f
# Master monitor: captured WRITE data
# Master monitor: captured 
# -------------------------APB_BASE_TRANSFER-------------------------
# DIR.=WRITE
# ADDR=a63cdb63
# DATA=e830759f
# --------------------------------------------------------------
# Slave monitor: captured WRITE data
# Slave monitor: captured 
# -------------------------APB_BASE_TRANSFER-------------------------
# DIR.=WRITE
# ADDR=a63cdb63
# DATA=e830759f
# --------------------------------------------------------------
#  
# -------------------------APB_MASTER_TRANSFER-------------------------
# DIR.=WRITE
# ADDR=a63cdb63
# DATA=e830759f
# --------------------------------------------------------------
# Transaction completed
# Waiting for sequence item
# Time: 3310, Phase: ACCESS, paddr: a63cdb63, psel: 1, penable: 1, pwrite: 1, prdata: 00000000, pwdata: e830759f
# Slave driver: PENABLE low - completing
# Slave driver: transaction completed
# 
# -------------------------APB_BASE_TRANSFER-------------------------
# DIR.=WRITE
# ADDR=a63cdb63
# DATA=e830759f
# --------------------------------------------------------------
# TRANSACTION RECEIVED:
# 
# -------------------------APB_BASE_TRANSFER-------------------------
# DIR.=WRITE
# ADDR=a63cdb63
# DATA=e830759f
# --------------------------------------------------------------
# WRITE NEW: Addr=0xa63cdb63 Data=0xe830759f
# WRITE STORED: Addr=0xa63cdb63 <- Data=0xe830759f
# Comparing master and slave transactions
# ADDR MATCH in compare_transactions
# DATA MATCH in compare_transactions
# Slave monitor: transaction sent to scoreboard
# Slave monitor: waiting for PSEL
# 
# -------------------------APB_BASE_TRANSFER-------------------------
# DIR.=WRITE
# ADDR=a63cdb63
# DATA=e830759f
# --------------------------------------------------------------
# TRANSACTION RECEIVED:
# 
# -------------------------APB_BASE_TRANSFER-------------------------
# DIR.=WRITE
# ADDR=a63cdb63
# DATA=e830759f
# --------------------------------------------------------------
# WRITE SAME VALUE: Addr=0xa63cdb63 Data=0xe830759f
# WRITE STORED: Addr=0xa63cdb63 <- Data=0xe830759f
# Comparing master and slave transactions
# ADDR MATCH in compare_transactions
# DATA MATCH in compare_transactions
# Master monitor: transaction sent to scoreboard
# Master monitor: waiting for PSEL
# Got item: 
# -------------------------APB_MASTER_TRANSFER-------------------------
# DIR.=WRITE
# ADDR=43c1f450
# DATA=4d8a2093
# --------------------------------------------------------------
# Slave driver: got item 
# -------------------------APB_SLAVE_TRANSFER-------------------------
# DIR.=READ
# ADDR=c0c5a72d
# DATA=eead98e7
# --------------------------------------------------------------
# Time: 3330, Phase: IDLE, paddr: a63cdb63, psel: 0, penable: 0, pwrite: 1, prdata: 00000000, pwdata: e830759f
# Time: 3350, Phase: IDLE, paddr: a63cdb63, psel: 0, penable: 0, pwrite: 1, prdata: 00000000, pwdata: e830759f
# Time: 3370, Phase: IDLE, paddr: a63cdb63, psel: 0, penable: 0, pwrite: 1, prdata: 00000000, pwdata: e830759f
# Time: 3390, Phase: IDLE, paddr: a63cdb63, psel: 0, penable: 0, pwrite: 1, prdata: 00000000, pwdata: e830759f
# Driving: addr=43c1f450 data=4d8a2093 write=1
# WRITE transaction: PWDATA set
# Time: 3410, Phase: IDLE, paddr: a63cdb63, psel: 0, penable: 0, pwrite: 1, prdata: 00000000, pwdata: e830759f
# Slave driver: SETUP phase detected
# Master monitor: PSEL detected PADDR=43c1f450 PWRITE=1
# Master monitor: waiting for PENABLE+PREADY
# Slave monitor: PSEL detected PADDR=43c1f450 PWRITE=1
# Slave monitor: waiting for PENABLE+PREADY
# Time: 3430, Phase: SETUP, paddr: 43c1f450, psel: 1, penable: 0, pwrite: 1, prdata: 00000000, pwdata: 4d8a2093
# Slave driver: ACCESS phase detected, PREADY=0 for 1 wait cycle
# Slave driver: PREADY asserted
# Slave driver: WRITE acknowledgment
# Time: 3450, Phase: ACCESS, paddr: 43c1f450, psel: 1, penable: 1, pwrite: 1, prdata: 00000000, pwdata: 4d8a2093
# Master monitor: captured WRITE data
# Master monitor: captured 
# -------------------------APB_BASE_TRANSFER-------------------------
# DIR.=WRITE
# ADDR=43c1f450
# DATA=4d8a2093
# --------------------------------------------------------------
# Slave monitor: captured WRITE data
# Slave monitor: captured 
# -------------------------APB_BASE_TRANSFER-------------------------
# DIR.=WRITE
# ADDR=43c1f450
# DATA=4d8a2093
# --------------------------------------------------------------
#  
# -------------------------APB_MASTER_TRANSFER-------------------------
# DIR.=WRITE
# ADDR=43c1f450
# DATA=4d8a2093
# --------------------------------------------------------------
# Transaction completed
# Waiting for sequence item
# Time: 3470, Phase: ACCESS, paddr: 43c1f450, psel: 1, penable: 1, pwrite: 1, prdata: 00000000, pwdata: 4d8a2093
# Slave driver: PENABLE low - completing
# Slave driver: transaction completed
# 
# -------------------------APB_BASE_TRANSFER-------------------------
# DIR.=WRITE
# ADDR=43c1f450
# DATA=4d8a2093
# --------------------------------------------------------------
# TRANSACTION RECEIVED:
# 
# -------------------------APB_BASE_TRANSFER-------------------------
# DIR.=WRITE
# ADDR=43c1f450
# DATA=4d8a2093
# --------------------------------------------------------------
# WRITE NEW: Addr=0x43c1f450 Data=0x4d8a2093
# WRITE STORED: Addr=0x43c1f450 <- Data=0x4d8a2093
# Comparing master and slave transactions
# ADDR MATCH in compare_transactions
# DATA MATCH in compare_transactions
# Slave monitor: transaction sent to scoreboard
# Slave monitor: waiting for PSEL
# 
# -------------------------APB_BASE_TRANSFER-------------------------
# DIR.=WRITE
# ADDR=43c1f450
# DATA=4d8a2093
# --------------------------------------------------------------
# TRANSACTION RECEIVED:
# 
# -------------------------APB_BASE_TRANSFER-------------------------
# DIR.=WRITE
# ADDR=43c1f450
# DATA=4d8a2093
# --------------------------------------------------------------
# WRITE SAME VALUE: Addr=0x43c1f450 Data=0x4d8a2093
# WRITE STORED: Addr=0x43c1f450 <- Data=0x4d8a2093
# Comparing master and slave transactions
# ADDR MATCH in compare_transactions
# DATA MATCH in compare_transactions
# Master monitor: transaction sent to scoreboard
# Master monitor: waiting for PSEL
# Got item: 
# -------------------------APB_MASTER_TRANSFER-------------------------
# DIR.=WRITE
# ADDR=6bdeac3
# DATA=1b2660a9
# --------------------------------------------------------------
# Slave driver: got item 
# -------------------------APB_SLAVE_TRANSFER-------------------------
# DIR.=WRITE
# ADDR=b94c2486
# DATA=7909da94
# --------------------------------------------------------------
# Time: 3490, Phase: IDLE, paddr: 43c1f450, psel: 0, penable: 0, pwrite: 1, prdata: 00000000, pwdata: 4d8a2093
# Time: 3510, Phase: IDLE, paddr: 43c1f450, psel: 0, penable: 0, pwrite: 1, prdata: 00000000, pwdata: 4d8a2093
# Driving: addr=6bdeac3 data=1b2660a9 write=1
# WRITE transaction: PWDATA set
# Time: 3530, Phase: IDLE, paddr: 43c1f450, psel: 0, penable: 0, pwrite: 1, prdata: 00000000, pwdata: 4d8a2093
# Slave driver: SETUP phase detected
# Master monitor: PSEL detected PADDR=6bdeac3 PWRITE=1
# Master monitor: waiting for PENABLE+PREADY
# Slave monitor: PSEL detected PADDR=6bdeac3 PWRITE=1
# Slave monitor: waiting for PENABLE+PREADY
# Time: 3550, Phase: SETUP, paddr: 06bdeac3, psel: 1, penable: 0, pwrite: 1, prdata: 00000000, pwdata: 1b2660a9
# Slave driver: ACCESS phase detected, PREADY=0 for 1 wait cycle
# Slave driver: PREADY asserted
# Slave driver: WRITE acknowledgment
# Time: 3570, Phase: ACCESS, paddr: 06bdeac3, psel: 1, penable: 1, pwrite: 1, prdata: 00000000, pwdata: 1b2660a9
# Master monitor: captured WRITE data
# Master monitor: captured 
# -------------------------APB_BASE_TRANSFER-------------------------
# DIR.=WRITE
# ADDR=6bdeac3
# DATA=1b2660a9
# --------------------------------------------------------------
# Slave monitor: captured WRITE data
# Slave monitor: captured 
# -------------------------APB_BASE_TRANSFER-------------------------
# DIR.=WRITE
# ADDR=6bdeac3
# DATA=1b2660a9
# --------------------------------------------------------------
#  
# -------------------------APB_MASTER_TRANSFER-------------------------
# DIR.=WRITE
# ADDR=6bdeac3
# DATA=1b2660a9
# --------------------------------------------------------------
# Transaction completed
# Waiting for sequence item
# Time: 3590, Phase: ACCESS, paddr: 06bdeac3, psel: 1, penable: 1, pwrite: 1, prdata: 00000000, pwdata: 1b2660a9
# Slave driver: PENABLE low - completing
# Slave driver: transaction completed
# 
# -------------------------APB_BASE_TRANSFER-------------------------
# DIR.=WRITE
# ADDR=6bdeac3
# DATA=1b2660a9
# --------------------------------------------------------------
# TRANSACTION RECEIVED:
# 
# -------------------------APB_BASE_TRANSFER-------------------------
# DIR.=WRITE
# ADDR=6bdeac3
# DATA=1b2660a9
# --------------------------------------------------------------
# WRITE NEW: Addr=0x6bdeac3 Data=0x1b2660a9
# WRITE STORED: Addr=0x6bdeac3 <- Data=0x1b2660a9
# Comparing master and slave transactions
# ADDR MATCH in compare_transactions
# DATA MATCH in compare_transactions
# Slave monitor: transaction sent to scoreboard
# Slave monitor: waiting for PSEL
# 
# -------------------------APB_BASE_TRANSFER-------------------------
# DIR.=WRITE
# ADDR=6bdeac3
# DATA=1b2660a9
# --------------------------------------------------------------
# TRANSACTION RECEIVED:
# 
# -------------------------APB_BASE_TRANSFER-------------------------
# DIR.=WRITE
# ADDR=6bdeac3
# DATA=1b2660a9
# --------------------------------------------------------------
# WRITE SAME VALUE: Addr=0x6bdeac3 Data=0x1b2660a9
# WRITE STORED: Addr=0x6bdeac3 <- Data=0x1b2660a9
# Comparing master and slave transactions
# ADDR MATCH in compare_transactions
# DATA MATCH in compare_transactions
# Master monitor: transaction sent to scoreboard
# Master monitor: waiting for PSEL
# Slave driver: got item 
# -------------------------APB_SLAVE_TRANSFER-------------------------
# DIR.=WRITE
# ADDR=287a81f8
# DATA=91b76bb2
# --------------------------------------------------------------
# Got item: 
# -------------------------APB_MASTER_TRANSFER-------------------------
# DIR.=READ
# ADDR=67155ff9
# DATA=3a13ae96
# --------------------------------------------------------------
# Time: 3610, Phase: IDLE, paddr: 06bdeac3, psel: 0, penable: 0, pwrite: 1, prdata: 00000000, pwdata: 1b2660a9
# Time: 3630, Phase: IDLE, paddr: 06bdeac3, psel: 0, penable: 0, pwrite: 1, prdata: 00000000, pwdata: 1b2660a9
# Time: 3650, Phase: IDLE, paddr: 06bdeac3, psel: 0, penable: 0, pwrite: 1, prdata: 00000000, pwdata: 1b2660a9
# Driving: addr=67155ff9 data=3a13ae96 write=0
# READ transaction: PWDATA cleared
# Time: 3670, Phase: IDLE, paddr: 06bdeac3, psel: 0, penable: 0, pwrite: 1, prdata: 00000000, pwdata: 1b2660a9
# Slave driver: SETUP phase detected
# Master monitor: PSEL detected PADDR=67155ff9 PWRITE=0
# Master monitor: waiting for PENABLE+PREADY
# Slave monitor: PSEL detected PADDR=67155ff9 PWRITE=0
# Slave monitor: waiting for PENABLE+PREADY
# Time: 3690, Phase: SETUP, paddr: 67155ff9, psel: 1, penable: 0, pwrite: 0, prdata: 00000000, pwdata: 00000000
# Slave driver: ACCESS phase detected, PREADY=0 for 1 wait cycle
# Slave driver: PREADY asserted
# Slave driver: READ response PRDATA=0x91b76bb2
# Time: 3710, Phase: ACCESS, paddr: 67155ff9, psel: 1, penable: 1, pwrite: 0, prdata: 00000000, pwdata: 00000000
# Master monitor: captured READ data
# Master monitor: captured 
# -------------------------APB_BASE_TRANSFER-------------------------
# DIR.=READ
# ADDR=67155ff9
# DATA=91b76bb2
# --------------------------------------------------------------
# Slave monitor: captured READ data
# Slave monitor: captured 
# -------------------------APB_BASE_TRANSFER-------------------------
# DIR.=READ
# ADDR=67155ff9
# DATA=91b76bb2
# --------------------------------------------------------------
#  
# -------------------------APB_MASTER_TRANSFER-------------------------
# DIR.=READ
# ADDR=67155ff9
# DATA=3a13ae96
# --------------------------------------------------------------
# Transaction completed
# Waiting for sequence item
# Time: 3730, Phase: ACCESS, paddr: 67155ff9, psel: 1, penable: 1, pwrite: 0, prdata: 91b76bb2, pwdata: 00000000
# Slave driver: PENABLE low - completing
# Slave driver: transaction completed
# 
# -------------------------APB_BASE_TRANSFER-------------------------
# DIR.=READ
# ADDR=67155ff9
# DATA=91b76bb2
# --------------------------------------------------------------
# TRANSACTION RECEIVED:
# 
# -------------------------APB_BASE_TRANSFER-------------------------
# DIR.=READ
# ADDR=67155ff9
# DATA=91b76bb2
# --------------------------------------------------------------
# READ uninitialised 0x67155ff9: Default=0xdeadbeef Act=0x91b76bb2
# Slave monitor: transaction sent to scoreboard
# Slave monitor: waiting for PSEL
# 
# -------------------------APB_BASE_TRANSFER-------------------------
# DIR.=READ
# ADDR=67155ff9
# DATA=91b76bb2
# --------------------------------------------------------------
# TRANSACTION RECEIVED:
# 
# -------------------------APB_BASE_TRANSFER-------------------------
# DIR.=READ
# ADDR=67155ff9
# DATA=91b76bb2
# --------------------------------------------------------------
# READ uninitialised 0x67155ff9: Default=0xdeadbeef Act=0x91b76bb2
# Master monitor: transaction sent to scoreboard
# Master monitor: waiting for PSEL
# Got item: 
# -------------------------APB_MASTER_TRANSFER-------------------------
# DIR.=READ
# ADDR=94e54d13
# DATA=c036fb2
# --------------------------------------------------------------
# Slave driver: got item 
# -------------------------APB_SLAVE_TRANSFER-------------------------
# DIR.=READ
# ADDR=7e0fc757
# DATA=37711176
# --------------------------------------------------------------
# Time: 3750, Phase: IDLE, paddr: 67155ff9, psel: 0, penable: 0, pwrite: 0, prdata: 91b76bb2, pwdata: 00000000
# Time: 3770, Phase: IDLE, paddr: 67155ff9, psel: 0, penable: 0, pwrite: 0, prdata: 91b76bb2, pwdata: 00000000
# Time: 3790, Phase: IDLE, paddr: 67155ff9, psel: 0, penable: 0, pwrite: 0, prdata: 91b76bb2, pwdata: 00000000
# Time: 3810, Phase: IDLE, paddr: 67155ff9, psel: 0, penable: 0, pwrite: 0, prdata: 91b76bb2, pwdata: 00000000
# Time: 3830, Phase: IDLE, paddr: 67155ff9, psel: 0, penable: 0, pwrite: 0, prdata: 91b76bb2, pwdata: 00000000
# Time: 3850, Phase: IDLE, paddr: 67155ff9, psel: 0, penable: 0, pwrite: 0, prdata: 91b76bb2, pwdata: 00000000
# Time: 3870, Phase: IDLE, paddr: 67155ff9, psel: 0, penable: 0, pwrite: 0, prdata: 91b76bb2, pwdata: 00000000
# Time: 3890, Phase: IDLE, paddr: 67155ff9, psel: 0, penable: 0, pwrite: 0, prdata: 91b76bb2, pwdata: 00000000
# Time: 3910, Phase: IDLE, paddr: 67155ff9, psel: 0, penable: 0, pwrite: 0, prdata: 91b76bb2, pwdata: 00000000
# Driving: addr=94e54d13 data=c036fb2 write=0
# READ transaction: PWDATA cleared
# Time: 3930, Phase: IDLE, paddr: 67155ff9, psel: 0, penable: 0, pwrite: 0, prdata: 91b76bb2, pwdata: 00000000
# Slave driver: SETUP phase detected
# Master monitor: PSEL detected PADDR=94e54d13 PWRITE=0
# Master monitor: waiting for PENABLE+PREADY
# Slave monitor: PSEL detected PADDR=94e54d13 PWRITE=0
# Slave monitor: waiting for PENABLE+PREADY
# Time: 3950, Phase: SETUP, paddr: 94e54d13, psel: 1, penable: 0, pwrite: 0, prdata: 91b76bb2, pwdata: 00000000
# Slave driver: ACCESS phase detected, PREADY=0 for 1 wait cycle
# Slave driver: PREADY asserted
# Slave driver: READ response PRDATA=0x37711176
# Time: 3970, Phase: ACCESS, paddr: 94e54d13, psel: 1, penable: 1, pwrite: 0, prdata: 91b76bb2, pwdata: 00000000
# Master monitor: captured READ data
# Master monitor: captured 
# -------------------------APB_BASE_TRANSFER-------------------------
# DIR.=READ
# ADDR=94e54d13
# DATA=37711176
# --------------------------------------------------------------
# Slave monitor: captured READ data
# Slave monitor: captured 
# -------------------------APB_BASE_TRANSFER-------------------------
# DIR.=READ
# ADDR=94e54d13
# DATA=37711176
# --------------------------------------------------------------
#  
# -------------------------APB_MASTER_TRANSFER-------------------------
# DIR.=READ
# ADDR=94e54d13
# DATA=c036fb2
# --------------------------------------------------------------
# Transaction completed
# Waiting for sequence item
# Time: 3990, Phase: ACCESS, paddr: 94e54d13, psel: 1, penable: 1, pwrite: 0, prdata: 37711176, pwdata: 00000000
# Slave driver: PENABLE low - completing
# Slave driver: transaction completed
# 
# -------------------------APB_BASE_TRANSFER-------------------------
# DIR.=READ
# ADDR=94e54d13
# DATA=37711176
# --------------------------------------------------------------
# TRANSACTION RECEIVED:
# 
# -------------------------APB_BASE_TRANSFER-------------------------
# DIR.=READ
# ADDR=94e54d13
# DATA=37711176
# --------------------------------------------------------------
# READ uninitialised 0x94e54d13: Default=0xdeadbeef Act=0x37711176
# Slave monitor: transaction sent to scoreboard
# Slave monitor: waiting for PSEL
# 
# -------------------------APB_BASE_TRANSFER-------------------------
# DIR.=READ
# ADDR=94e54d13
# DATA=37711176
# --------------------------------------------------------------
# TRANSACTION RECEIVED:
# 
# -------------------------APB_BASE_TRANSFER-------------------------
# DIR.=READ
# ADDR=94e54d13
# DATA=37711176
# --------------------------------------------------------------
# READ uninitialised 0x94e54d13: Default=0xdeadbeef Act=0x37711176
# Master monitor: transaction sent to scoreboard
# Master monitor: waiting for PSEL
# Got item: 
# -------------------------APB_MASTER_TRANSFER-------------------------
# DIR.=WRITE
# ADDR=beddda6b
# DATA=5c09fcac
# --------------------------------------------------------------
# Slave driver: got item 
# -------------------------APB_SLAVE_TRANSFER-------------------------
# DIR.=READ
# ADDR=61b42fdb
# DATA=899489b5
# --------------------------------------------------------------
# Time: 4010, Phase: IDLE, paddr: 94e54d13, psel: 0, penable: 0, pwrite: 0, prdata: 37711176, pwdata: 00000000
# Time: 4030, Phase: IDLE, paddr: 94e54d13, psel: 0, penable: 0, pwrite: 0, prdata: 37711176, pwdata: 00000000
# Time: 4050, Phase: IDLE, paddr: 94e54d13, psel: 0, penable: 0, pwrite: 0, prdata: 37711176, pwdata: 00000000
# Driving: addr=beddda6b data=5c09fcac write=1
# WRITE transaction: PWDATA set
# Time: 4070, Phase: IDLE, paddr: 94e54d13, psel: 0, penable: 0, pwrite: 0, prdata: 37711176, pwdata: 00000000
# Slave driver: SETUP phase detected
# Master monitor: PSEL detected PADDR=beddda6b PWRITE=1
# Master monitor: waiting for PENABLE+PREADY
# Slave monitor: PSEL detected PADDR=beddda6b PWRITE=1
# Slave monitor: waiting for PENABLE+PREADY
# Time: 4090, Phase: SETUP, paddr: beddda6b, psel: 1, penable: 0, pwrite: 1, prdata: 37711176, pwdata: 5c09fcac
# Slave driver: ACCESS phase detected, PREADY=0 for 1 wait cycle
# Slave driver: PREADY asserted
# Slave driver: WRITE acknowledgment
# Time: 4110, Phase: ACCESS, paddr: beddda6b, psel: 1, penable: 1, pwrite: 1, prdata: 37711176, pwdata: 5c09fcac
# Master monitor: captured WRITE data
# Master monitor: captured 
# -------------------------APB_BASE_TRANSFER-------------------------
# DIR.=WRITE
# ADDR=beddda6b
# DATA=5c09fcac
# --------------------------------------------------------------
# Slave monitor: captured WRITE data
# Slave monitor: captured 
# -------------------------APB_BASE_TRANSFER-------------------------
# DIR.=WRITE
# ADDR=beddda6b
# DATA=5c09fcac
# --------------------------------------------------------------
#  
# -------------------------APB_MASTER_TRANSFER-------------------------
# DIR.=WRITE
# ADDR=beddda6b
# DATA=5c09fcac
# --------------------------------------------------------------
# Transaction completed
# Waiting for sequence item
# Time: 4130, Phase: ACCESS, paddr: beddda6b, psel: 1, penable: 1, pwrite: 1, prdata: 00000000, pwdata: 5c09fcac
# Slave driver: PENABLE low - completing
# Slave driver: transaction completed
# 
# -------------------------APB_BASE_TRANSFER-------------------------
# DIR.=WRITE
# ADDR=beddda6b
# DATA=5c09fcac
# --------------------------------------------------------------
# TRANSACTION RECEIVED:
# 
# -------------------------APB_BASE_TRANSFER-------------------------
# DIR.=WRITE
# ADDR=beddda6b
# DATA=5c09fcac
# --------------------------------------------------------------
# WRITE NEW: Addr=0xbeddda6b Data=0x5c09fcac
# WRITE STORED: Addr=0xbeddda6b <- Data=0x5c09fcac
# Comparing master and slave transactions
# ADDR MATCH in compare_transactions
# DATA MATCH in compare_transactions
# Slave monitor: transaction sent to scoreboard
# Slave monitor: waiting for PSEL
# 
# -------------------------APB_BASE_TRANSFER-------------------------
# DIR.=WRITE
# ADDR=beddda6b
# DATA=5c09fcac
# --------------------------------------------------------------
# TRANSACTION RECEIVED:
# 
# -------------------------APB_BASE_TRANSFER-------------------------
# DIR.=WRITE
# ADDR=beddda6b
# DATA=5c09fcac
# --------------------------------------------------------------
# WRITE SAME VALUE: Addr=0xbeddda6b Data=0x5c09fcac
# WRITE STORED: Addr=0xbeddda6b <- Data=0x5c09fcac
# Comparing master and slave transactions
# ADDR MATCH in compare_transactions
# DATA MATCH in compare_transactions
# Master monitor: transaction sent to scoreboard
# Master monitor: waiting for PSEL
# Got item: 
# -------------------------APB_MASTER_TRANSFER-------------------------
# DIR.=READ
# ADDR=5166dad5
# DATA=c317a1e4
# --------------------------------------------------------------
# Slave driver: got item 
# -------------------------APB_SLAVE_TRANSFER-------------------------
# DIR.=READ
# ADDR=4b5823ae
# DATA=e5c57ba3
# --------------------------------------------------------------
# Time: 4150, Phase: IDLE, paddr: beddda6b, psel: 0, penable: 0, pwrite: 1, prdata: 00000000, pwdata: 5c09fcac
# Time: 4170, Phase: IDLE, paddr: beddda6b, psel: 0, penable: 0, pwrite: 1, prdata: 00000000, pwdata: 5c09fcac
# Time: 4190, Phase: IDLE, paddr: beddda6b, psel: 0, penable: 0, pwrite: 1, prdata: 00000000, pwdata: 5c09fcac
# Time: 4210, Phase: IDLE, paddr: beddda6b, psel: 0, penable: 0, pwrite: 1, prdata: 00000000, pwdata: 5c09fcac
# Time: 4230, Phase: IDLE, paddr: beddda6b, psel: 0, penable: 0, pwrite: 1, prdata: 00000000, pwdata: 5c09fcac
# Time: 4250, Phase: IDLE, paddr: beddda6b, psel: 0, penable: 0, pwrite: 1, prdata: 00000000, pwdata: 5c09fcac
# Time: 4270, Phase: IDLE, paddr: beddda6b, psel: 0, penable: 0, pwrite: 1, prdata: 00000000, pwdata: 5c09fcac
# Time: 4290, Phase: IDLE, paddr: beddda6b, psel: 0, penable: 0, pwrite: 1, prdata: 00000000, pwdata: 5c09fcac
# Driving: addr=5166dad5 data=c317a1e4 write=0
# READ transaction: PWDATA cleared
# Time: 4310, Phase: IDLE, paddr: beddda6b, psel: 0, penable: 0, pwrite: 1, prdata: 00000000, pwdata: 5c09fcac
# Slave driver: SETUP phase detected
# Master monitor: PSEL detected PADDR=5166dad5 PWRITE=0
# Master monitor: waiting for PENABLE+PREADY
# Slave monitor: PSEL detected PADDR=5166dad5 PWRITE=0
# Slave monitor: waiting for PENABLE+PREADY
# Time: 4330, Phase: SETUP, paddr: 5166dad5, psel: 1, penable: 0, pwrite: 0, prdata: 00000000, pwdata: 00000000
# Slave driver: ACCESS phase detected, PREADY=0 for 1 wait cycle
# Slave driver: PREADY asserted
# Slave driver: READ response PRDATA=0xe5c57ba3
# Time: 4350, Phase: ACCESS, paddr: 5166dad5, psel: 1, penable: 1, pwrite: 0, prdata: 00000000, pwdata: 00000000
# Master monitor: captured READ data
# Master monitor: captured 
# -------------------------APB_BASE_TRANSFER-------------------------
# DIR.=READ
# ADDR=5166dad5
# DATA=e5c57ba3
# --------------------------------------------------------------
# Slave monitor: captured READ data
# Slave monitor: captured 
# -------------------------APB_BASE_TRANSFER-------------------------
# DIR.=READ
# ADDR=5166dad5
# DATA=e5c57ba3
# --------------------------------------------------------------
#  
# -------------------------APB_MASTER_TRANSFER-------------------------
# DIR.=READ
# ADDR=5166dad5
# DATA=c317a1e4
# --------------------------------------------------------------
# Transaction completed
# Waiting for sequence item
# Time: 4370, Phase: ACCESS, paddr: 5166dad5, psel: 1, penable: 1, pwrite: 0, prdata: e5c57ba3, pwdata: 00000000
# Slave driver: PENABLE low - completing
# Slave driver: transaction completed
# 
# -------------------------APB_BASE_TRANSFER-------------------------
# DIR.=READ
# ADDR=5166dad5
# DATA=e5c57ba3
# --------------------------------------------------------------
# TRANSACTION RECEIVED:
# 
# -------------------------APB_BASE_TRANSFER-------------------------
# DIR.=READ
# ADDR=5166dad5
# DATA=e5c57ba3
# --------------------------------------------------------------
# READ uninitialised 0x5166dad5: Default=0xdeadbeef Act=0xe5c57ba3
# Slave monitor: transaction sent to scoreboard
# Slave monitor: waiting for PSEL
# 
# -------------------------APB_BASE_TRANSFER-------------------------
# DIR.=READ
# ADDR=5166dad5
# DATA=e5c57ba3
# --------------------------------------------------------------
# TRANSACTION RECEIVED:
# 
# -------------------------APB_BASE_TRANSFER-------------------------
